;$FILEVERSION=1.1
;$STARTTIME=46244.0088232639
;
;   Start time: 2026/8/10 00:12:42.330.0
;   Generated by PCAN-View v6.0.0.1040
;
;   Message Number
;   |         Time Offset (ms)
;   |         |        Type
;   |         |        |        ID (hex)
;   |         |        |        |     Data Length
;   |         |        |        |     |   Data Bytes (hex) ...
;   |         |        |        |     |   |
;---+--   ----+----  --+--  ----+---  +  -+ -- -- -- -- -- -- --
     1)      6702.6  Rx     18DA03F1  8  02 10 02 00 00 00 00 00 
     2)      6703.7  Rx     18DAF103  8  02 50 02 AA AA AA AA AA 
     3)      6804.5  Rx     18DA03F1  8  02 27 01 00 00 00 00 00 
     4)      6805.6  Rx     18DAF103  8  06 67 01 9E 37 89 59 AA 
     5)      6806.3  Rx     18DA03F1  8  06 27 02 25 65 76 92 00 
     6)      6807.6  Rx     18DAF103  8  02 67 02 AA AA AA AA AA 
     7)      6808.8  Rx     18DA03F1  8  10 0D 31 01 FE 00 00 08 
     8)      6809.9  Rx     18DAF103  8  30 00 05 AA AA AA AA AA 
     9)      6811.3  Rx     18DA03F1  8  21 01 80 00 00 01 29 D0 
    10)      6812.5  Rx     18DAF103  8  02 71 00 AA AA AA AA AA 
    11)      6813.3  Rx     18DA03F1  8  10 0B 34 00 44 08 01 80 
    12)      6814.4  Rx     18DAF103  8  30 00 05 AA AA AA AA AA 
    13)      6815.3  Rx     18DA03F1  8  21 00 00 01 29 D0 00 00 
    14)      7220.6  Rx     18DAF103  8  03 74 40 00 AA AA AA AA 
    15)      7234.4  Rx     18DA03F1  8  11 02 36 01 28 01 01 20 
    16)      7235.6  Rx     18DAF103  8  30 00 05 AA AA AA AA AA 
    17)      7265.0  Rx     18DA03F1  8  21 95 A2 01 00 CD A2 01 
    18)      7268.3  Rx     18DA03F1  8  22 00 CF A2 01 00 D1 A2 
    19)      7271.3  Rx     18DA03F1  8  23 01 00 D3 A2 01 00 D5 
    20)      7274.3  Rx     18DA03F1  8  24 A2 01 00 00 00 00 00 
    21)      7277.4  Rx     18DA03F1  8  25 00 00 00 00 00 00 00 
    22)      7280.3  Rx     18DA03F1  8  26 00 00 00 00 00 D7 A2 
    23)      7283.3  Rx     18DA03F1  8  27 01 00 D9 A2 01 00 00 
    24)      7286.4  Rx     18DA03F1  8  28 00 00 00 DB A2 01 00 
    25)      7289.3  Rx     18DA03F1  8  29 BD 12 02 00 D5 EC 01 
    26)      7292.3  Rx     18DA03F1  8  2A 00 E9 EC 01 00 FD EC 
    27)      7295.3  Rx     18DA03F1  8  2B 01 00 11 ED 01 00 25 
    28)      7298.3  Rx     18DA03F1  8  2C ED 01 00 39 ED 01 00 
    29)      7301.3  Rx     18DA03F1  8  2D 4D ED 01 00 61 ED 01 
    30)      7304.3  Rx     18DA03F1  8  2E 00 75 ED 01 00 89 ED 
    31)      7307.3  Rx     18DA03F1  8  2F 01 00 9D ED 01 00 B1 
    32)      7310.3  Rx     18DA03F1  8  20 ED 01 00 C5 ED 01 00 
    33)      7313.3  Rx     18DA03F1  8  21 D9 ED 01 00 ED ED 01 
    34)      7316.3  Rx     18DA03F1  8  22 00 01 EE 01 00 15 EE 
    35)      7319.3  Rx     18DA03F1  8  23 01 00 29 EE 01 00 3D 
    36)      7322.3  Rx     18DA03F1  8  24 EE 01 00 51 EE 01 00 
    37)      7325.3  Rx     18DA03F1  8  25 65 EE 01 00 79 EE 01 
    38)      7328.3  Rx     18DA03F1  8  26 00 8D EE 01 00 A1 EE 
    39)      7331.3  Rx     18DA03F1  8  27 01 00 B5 EE 01 00 C9 
    40)      7334.3  Rx     18DA03F1  8  28 EE 01 00 DD EE 01 00 
    41)      7337.3  Rx     18DA03F1  8  29 F1 EE 01 00 05 EF 01 
    42)      7340.3  Rx     18DA03F1  8  2A 00 19 EF 01 00 2D EF 
    43)      7343.3  Rx     18DA03F1  8  2B 01 00 41 EF 01 00 55 
    44)      7346.3  Rx     18DA03F1  8  2C EF 01 00 69 EF 01 00 
    45)      7349.3  Rx     18DA03F1  8  2D 7D EF 01 00 91 EF 01 
    46)      7352.3  Rx     18DA03F1  8  2E 00 A5 EF 01 00 B9 EF 
    47)      7355.3  Rx     18DA03F1  8  2F 01 00 CD EF 01 00 E1 
    48)      7358.3  Rx     18DA03F1  8  20 EF 01 00 F5 EF 01 00 
    49)      7361.3  Rx     18DA03F1  8  21 09 F0 01 00 1D F0 01 
    50)      7364.3  Rx     18DA03F1  8  22 00 31 F0 01 00 45 F0 
    51)      7367.3  Rx     18DA03F1  8  23 01 00 59 F0 01 00 6D 
    52)      7370.3  Rx     18DA03F1  8  24 F0 01 00 81 F0 01 00 
    53)      7375.5  Rx     18DAF103  8  03 76 76 01 AA AA AA AA 
    54)      7387.4  Rx     18DA03F1  8  11 02 36 02 95 F0 01 00 
    55)      7388.6  Rx     18DAF103  8  30 00 05 AA AA AA AA AA 
    56)      7389.3  Rx     18DA03F1  8  21 A9 F0 01 00 BD F0 01 
    57)      7392.3  Rx     18DA03F1  8  22 00 D1 F0 01 00 E5 F0 
    58)      7395.3  Rx     18DA03F1  8  23 01 00 F9 F0 01 00 0D 
    59)      7398.3  Rx     18DA03F1  8  24 F1 01 00 21 F1 01 00 
    60)      7401.3  Rx     18DA03F1  8  25 35 F1 01 00 49 F1 01 
    61)      7404.3  Rx     18DA03F1  8  26 00 5D F1 01 00 71 F1 
    62)      7407.3  Rx     18DA03F1  8  27 01 00 85 F1 01 00 99 
    63)      7410.3  Rx     18DA03F1  8  28 F1 01 00 AD F1 01 00 
    64)      7413.3  Rx     18DA03F1  8  29 C1 F1 01 00 D5 F1 01 
    65)      7416.3  Rx     18DA03F1  8  2A 00 E9 F1 01 00 FD F1 
    66)      7419.3  Rx     18DA03F1  8  2B 01 00 11 F2 01 00 25 
    67)      7422.3  Rx     18DA03F1  8  2C F2 01 00 39 F2 01 00 
    68)      7425.3  Rx     18DA03F1  8  2D 4D F2 01 00 61 F2 01 
    69)      7428.3  Rx     18DA03F1  8  2E 00 75 F2 01 00 89 F2 
    70)      7431.3  Rx     18DA03F1  8  2F 01 00 9D F2 01 00 B1 
    71)      7434.3  Rx     18DA03F1  8  20 F2 01 00 C5 F2 01 00 
    72)      7437.3  Rx     18DA03F1  8  21 D9 F2 01 00 ED F2 01 
    73)      7440.3  Rx     18DA03F1  8  22 00 01 F3 01 00 15 F3 
    74)      7443.3  Rx     18DA03F1  8  23 01 00 29 F3 01 00 3D 
    75)      7446.3  Rx     18DA03F1  8  24 F3 01 00 51 F3 01 00 
    76)      7449.3  Rx     18DA03F1  8  25 65 F3 01 00 79 F3 01 
    77)      7452.3  Rx     18DA03F1  8  26 00 8D F3 01 00 A1 F3 
    78)      7455.3  Rx     18DA03F1  8  27 01 00 B5 F3 01 00 C9 
    79)      7458.3  Rx     18DA03F1  8  28 F3 01 00 DD F3 01 00 
    80)      7461.3  Rx     18DA03F1  8  29 F1 F3 01 00 05 F4 01 
    81)      7464.3  Rx     18DA03F1  8  2A 00 19 F4 01 00 2D F4 
    82)      7467.3  Rx     18DA03F1  8  2B 01 00 41 F4 01 00 55 
    83)      7470.3  Rx     18DA03F1  8  2C F4 01 00 69 F4 01 00 
    84)      7473.3  Rx     18DA03F1  8  2D 7D F4 01 00 91 F4 01 
    85)      7476.3  Rx     18DA03F1  8  2E 00 A5 F4 01 00 B9 F4 
    86)      7479.3  Rx     18DA03F1  8  2F 01 00 CD F4 01 00 E1 
    87)      7482.3  Rx     18DA03F1  8  20 F4 01 00 F5 F4 01 00 
    88)      7485.3  Rx     18DA03F1  8  21 09 F5 01 00 1D F5 01 
    89)      7488.3  Rx     18DA03F1  8  22 00 31 F5 01 00 45 F5 
    90)      7491.3  Rx     18DA03F1  8  23 01 00 59 F5 01 00 6D 
    91)      7494.3  Rx     18DA03F1  8  24 F5 01 00 81 F5 01 00 
    92)      7499.5  Rx     18DAF103  8  03 76 76 02 AA AA AA AA 
    93)      7513.4  Rx     18DA03F1  8  11 02 36 03 95 F5 01 00 
    94)      7514.6  Rx     18DAF103  8  30 00 05 AA AA AA AA AA 
    95)      7515.3  Rx     18DA03F1  8  21 A9 F5 01 00 BD F5 01 
    96)      7518.3  Rx     18DA03F1  8  22 00 D1 F5 01 00 E5 F5 
    97)      7521.3  Rx     18DA03F1  8  23 01 00 F9 F5 01 00 0D 
    98)      7524.3  Rx     18DA03F1  8  24 F6 01 00 21 F6 01 00 
    99)      7527.3  Rx     18DA03F1  8  25 35 F6 01 00 49 F6 01 
   100)      7530.3  Rx     18DA03F1  8  26 00 5D F6 01 00 71 F6 
   101)      7533.3  Rx     18DA03F1  8  27 01 00 85 F6 01 00 99 
   102)      7536.3  Rx     18DA03F1  8  28 F6 01 00 AD F6 01 00 
   103)      7539.3  Rx     18DA03F1  8  29 C1 F6 01 00 DF A2 01 
   104)      7542.3  Rx     18DA03F1  8  2A 00 DF A2 01 00 DF A2 
   105)      7545.3  Rx     18DA03F1  8  2B 01 00 DF A2 01 00 DF 
   106)      7548.3  Rx     18DA03F1  8  2C A2 01 00 DF A2 01 00 
   107)      7551.3  Rx     18DA03F1  8  2D DF A2 01 00 DF A2 01 
   108)      7554.3  Rx     18DA03F1  8  2E 00 DF A2 01 00 DF A2 
   109)      7557.3  Rx     18DA03F1  8  2F 01 00 DF A2 01 00 DF 
   110)      7560.3  Rx     18DA03F1  8  20 A2 01 00 DF A2 01 00 
   111)      7563.3  Rx     18DA03F1  8  21 DF A2 01 00 DF A2 01 
   112)      7566.3  Rx     18DA03F1  8  22 00 DF A2 01 00 DF F8 
   113)      7569.3  Rx     18DA03F1  8  23 0C D0 00 F0 8A FA 00 
   114)      7572.3  Rx     18DA03F1  8  24 48 00 47 61 6F 02 00 
   115)      7575.3  Rx     18DA03F1  8  25 28 01 01 20 12 48 4F 
   116)      7578.3  Rx     18DA03F1  8  26 F0 1F 01 01 60 11 48 
   117)      7581.3  Rx     18DA03F1  8  27 4F F0 77 01 01 60 10 
   118)      7584.3  Rx     18DA03F1  8  28 48 4F F0 77 01 01 60 
   119)      7587.3  Rx     18DA03F1  8  29 0F 48 4F F4 88 51 01 
   120)      7590.3  Rx     18DA03F1  8  2A 60 0B 48 4F F0 76 01 
   121)      7593.3  Rx     18DA03F1  8  2B 01 60 0A 48 4F F0 76 
   122)      7596.3  Rx     18DA03F1  8  2C 01 01 60 0A 48 80 47 
   123)      7599.3  Rx     18DA03F1  8  2D 0A 48 00 47 FE E7 FE 
   124)      7602.3  Rx     18DA03F1  8  2E E7 FE E7 FE E7 FE E7 
   125)      7605.3  Rx     18DA03F1  8  2F FE E7 FE E7 FE E7 FE 
   126)      7608.3  Rx     18DA03F1  8  20 E7 FE E7 10 08 05 40 
   127)      7611.3  Rx     18DA03F1  8  21 04 08 05 40 0C 08 05 
   128)      7614.3  Rx     18DA03F1  8  22 40 00 08 05 40 8D 17 
   129)      7617.3  Rx     18DA03F1  8  23 02 00 81 A2 01 00 2D 
   130)      7620.3  Rx     18DA03F1  8  24 E9 F0 5F 05 46 00 20 
   131)      7625.6  Rx     18DAF103  8  03 76 76 03 AA AA AA AA 
   132)      7639.4  Rx     18DA03F1  8  11 02 36 04 92 46 9B 46 
   133)      7640.6  Rx     18DAF103  8  30 00 05 AA AA AA AA AA 
   134)      7641.3  Rx     18DA03F1  8  21 88 46 06 46 81 46 40 
   135)      7644.3  Rx     18DA03F1  8  22 24 1B E0 28 46 41 46 
   136)      7647.3  Rx     18DA03F1  8  23 47 46 22 46 00 F0 8A 
   137)      7650.3  Rx     18DA03F1  8  24 F9 53 46 5A 46 C0 1A 
   138)      7653.3  Rx     18DA03F1  8  25 91 41 10 D3 11 46 18 
   139)      7656.3  Rx     18DA03F1  8  26 46 22 46 00 F0 71 F9 
   140)      7659.3  Rx     18DA03F1  8  27 2D 1A 67 EB 01 08 4F 
   141)      7662.3  Rx     18DA03F1  8  28 46 22 46 01 20 00 21 
   142)      7665.3  Rx     18DA03F1  8  29 00 F0 68 F9 17 EB 00 
   143)      7668.3  Rx     18DA03F1  8  2A 09 4E 41 20 1E A4 F1 
   144)      7671.3  Rx     18DA03F1  8  2B 01 04 DF DC 48 46 31 
   145)      7674.3  Rx     18DA03F1  8  2C 46 2A 46 43 46 BD E8 
   146)      7677.3  Rx     18DA03F1  8  2D F0 9F 40 EA 01 03 9B 
   147)      7680.3  Rx     18DA03F1  8  2E 07 03 D0 09 E0 08 C9 
   148)      7683.3  Rx     18DA03F1  8  2F 12 1F 08 C0 04 2A FA 
   149)      7686.3  Rx     18DA03F1  8  20 D2 03 E0 11 F8 01 3B 
   150)      7689.3  Rx     18DA03F1  8  21 00 F8 01 3B 52 1E F9 
   151)      7692.3  Rx     18DA03F1  8  22 D2 70 47 D2 B2 01 E0 
   152)      7695.3  Rx     18DA03F1  8  23 00 F8 01 2B 49 1E FB 
   153)      7698.3  Rx     18DA03F1  8  24 D2 70 47 00 22 F6 E7 
   154)      7701.3  Rx     18DA03F1  8  25 10 B5 13 46 0A 46 04 
   155)      7704.3  Rx     18DA03F1  8  26 46 19 46 FF F7 F0 FF 
   156)      7707.3  Rx     18DA03F1  8  27 20 46 10 BD 42 1E 12 
   157)      7710.3  Rx     18DA03F1  8  28 F8 01 3F 00 2B FB D1 
   158)      7713.3  Rx     18DA03F1  8  29 11 F8 01 3B 02 F8 01 
   159)      7716.3  Rx     18DA03F1  8  2A 3B 00 2B F9 D1 70 47 
   160)      7719.3  Rx     18DA03F1  8  2B 10 B5 04 46 04 E0 0B 
   161)      7722.3  Rx     18DA03F1  8  2C 78 00 F8 01 3B 03 B1 
   162)      7725.3  Rx     18DA03F1  8  2D 49 1C 52 1E F8 D2 20 
   163)      7728.3  Rx     18DA03F1  8  2E 46 10 BD 42 1C 10 F8 
   164)      7731.3  Rx     18DA03F1  8  2F 01 1B 00 29 FB D1 80 
   165)      7734.3  Rx     18DA03F1  8  20 1A 70 47 10 B5 00 22 
   166)      7737.3  Rx     18DA03F1  8  21 00 E0 52 1C 83 5C 8C 
   167)      7740.3  Rx     18DA03F1  8  22 5C A3 42 01 D1 00 2B 
   168)      7743.3  Rx     18DA03F1  8  23 F8 D1 D8 B2 E1 B2 40 
   169)      7746.3  Rx     18DA03F1  8  24 1A 10 BD 30 B5 04 46 
   170)      7751.6  Rx     18DAF103  8  03 76 76 04 AA AA AA AA 
   171)      7765.4  Rx     18DA03F1  8  11 02 36 05 00 20 03 46 
   172)      7766.6  Rx     18DAF103  8  30 00 05 AA AA AA AA AA 
   173)      7767.3  Rx     18DA03F1  8  21 00 E0 5B 1C 93 42 03 
   174)      7770.3  Rx     18DA03F1  8  22 D2 E0 5C CD 5C 40 1B 
   175)      7773.3  Rx     18DA03F1  8  23 F8 D0 30 BD 30 B5 05 
   176)      7776.3  Rx     18DA03F1  8  24 46 00 20 03 46 00 E0 
   177)      7779.3  Rx     18DA03F1  8  25 5B 1C 93 42 05 D2 EC 
   178)      7782.3  Rx     18DA03F1  8  26 5C C8 5C 20 1A 01 D1 
   179)      7785.3  Rx     18DA03F1  8  27 00 2C F6 D1 30 BD 2D 
   180)      7788.3  Rx     18DA03F1  8  28 E9 FE 4F 80 46 81 EA 
   181)      7791.3  Rx     18DA03F1  8  29 03 00 C0 0F 0C 46 00 
   182)      7794.3  Rx     18DA03F1  8  2A 90 21 F0 00 41 23 F0 
   183)      7797.3  Rx     18DA03F1  8  2B 00 45 B8 EB 02 00 A9 
   184)      7800.3  Rx     18DA03F1  8  2C 41 05 D2 40 46 21 46 
   185)      7803.3  Rx     18DA03F1  8  2D 90 46 1C 46 0B 46 02 
   186)      7806.3  Rx     18DA03F1  8  2E 46 23 F0 00 40 10 43 
   187)      7809.3  Rx     18DA03F1  8  2F 47 D0 27 0D C7 F3 0A 
   188)      7812.3  Rx     18DA03F1  8  20 00 C3 F3 0A 51 02 90 
   189)      7815.3  Rx     18DA03F1  8  21 40 1A 01 90 40 28 6B 
   190)      7818.3  Rx     18DA03F1  8  22 DA C3 F3 13 00 40 F4 
   191)      7821.3  Rx     18DA03F1  8  23 80 1B 00 98 92 46 20 
   192)      7824.3  Rx     18DA03F1  8  24 B1 00 23 D2 EB 03 0A 
   193)      7827.3  Rx     18DA03F1  8  25 63 EB 0B 0B 01 98 59 
   194)      7830.3  Rx     18DA03F1  8  26 46 C0 F1 40 02 50 46 
   195)      7833.3  Rx     18DA03F1  8  27 00 F0 B7 F8 06 46 0D 
   196)      7836.3  Rx     18DA03F1  8  28 46 50 46 59 46 01 9A 
   197)      7839.3  Rx     18DA03F1  8  29 00 F0 CF F8 10 EB 08 
   198)      7842.3  Rx     18DA03F1  8  2A 00 61 41 00 24 87 EA 
   199)      7845.3  Rx     18DA03F1  8  2B 11 52 84 EA E7 73 1A 
   200)      7848.3  Rx     18DA03F1  8  2C 43 40 D0 00 9A 62 B3 
   201)      7851.3  Rx     18DA03F1  8  2D 01 9A 01 2A 4F EA 07 
   202)      7854.3  Rx     18DA03F1  8  2E 52 15 DC 00 1B 61 EB 
   203)      7857.3  Rx     18DA03F1  8  2F 02 01 4F F0 00 42 02 
   204)      7860.3  Rx     18DA03F1  8  20 EA 07 52 CD E9 00 42 
   205)      7863.3  Rx     18DA03F1  8  21 00 1C 41 F5 80 11 32 
   206)      7866.3  Rx     18DA03F1  8  22 46 2B 46 00 F0 06 F9 
   207)      7869.3  Rx     18DA03F1  8  23 03 B0 BD E8 F0 8F 40 
   208)      7872.3  Rx     18DA03F1  8  24 46 21 46 F9 E7 00 1B 
   209)      7877.6  Rx     18DAF103  8  03 76 76 05 AA AA AA AA 
   210)      7891.4  Rx     18DA03F1  8  11 02 36 06 61 EB 02 01 
   211)      7892.6  Rx     18DAF103  8  30 00 05 AA AA AA AA AA 
   212)      7893.3  Rx     18DA03F1  8  21 00 1C 41 F5 80 13 00 
   213)      7896.3  Rx     18DA03F1  8  22 18 5B 41 20 18 A2 F5 
   214)      7899.3  Rx     18DA03F1  8  23 00 17 47 EB 03 01 40 
   215)      7902.3  Rx     18DA03F1  8  24 EA D5 70 B6 19 6D 41 
   216)      7905.3  Rx     18DA03F1  8  25 11 E0 6D 08 4F EA 36 
   217)      7908.3  Rx     18DA03F1  8  26 06 45 EA C0 75 4F EA 
   218)      7911.3  Rx     18DA03F1  8  27 07 52 00 1B 61 EB 02 
   219)      7914.3  Rx     18DA03F1  8  28 01 00 1C 41 F5 80 11 
   220)      7917.4  Rx     18DA03F1  8  29 49 08 4F EA 30 00 00 
   221)      7920.3  Rx     18DA03F1  8  2A 19 51 41 32 46 2B 46 
   222)      7923.3  Rx     18DA03F1  8  2B 03 B0 BD E8 F0 4F 00 
   223)      7926.4  Rx     18DA03F1  8  2C F0 C6 B8 00 98 01 22 
   224)      7929.3  Rx     18DA03F1  8  2D 40 00 00 23 D0 EB 02 
   225)      7932.3  Rx     18DA03F1  8  2E 02 63 EB E0 73 00 98 
   226)      7935.3  Rx     18DA03F1  8  2F 21 46 4F EA E0 74 B8 
   227)      7938.3  Rx     18DA03F1  8  20 EB 00 00 61 EB 04 01 
   228)      7941.3  Rx     18DA03F1  8  21 E9 E7 83 F0 00 43 5B 
   229)      7944.3  Rx     18DA03F1  8  22 E7 81 F0 00 41 58 E7 
   230)      7947.4  Rx     18DA03F1  8  23 00 F0 00 42 30 F0 00 
   231)      7950.3  Rx     18DA03F1  8  24 40 0A D0 C1 0D 01 F5 
   232)      7953.3  Rx     18DA03F1  8  25 60 71 C0 F3 16 00 42 
   233)      7956.4  Rx     18DA03F1  8  26 EA 01 51 C2 08 40 07 
   234)      7959.3  Rx     18DA03F1  8  27 11 43 70 47 00 20 01 
   235)      7962.3  Rx     18DA03F1  8  28 46 70 47 30 B5 04 1E 
   236)      7965.4  Rx     18DA03F1  8  29 71 F1 00 04 04 DB 4F 
   237)      7968.3  Rx     18DA03F1  8  2A F0 00 44 40 42 64 EB 
   238)      7971.3  Rx     18DA03F1  8  2B 01 01 14 1E 73 F1 00 
   239)      7974.4  Rx     18DA03F1  8  2C 04 05 DB 1C 46 4F F0 
   240)      7977.3  Rx     18DA03F1  8  2D 00 43 52 42 63 EB 04 
   241)      7980.3  Rx     18DA03F1  8  2E 03 99 42 08 BF 90 42 
   242)      7983.3  Rx     18DA03F1  8  2F 30 BD 01 F0 00 43 30 
   243)      7986.3  Rx     18DA03F1  8  20 B4 21 F0 00 41 50 EA 
   244)      7989.3  Rx     18DA03F1  8  21 01 02 06 D0 0A 0D A2 
   245)      7992.3  Rx     18DA03F1  8  22 F5 60 72 C1 F3 13 01 
   246)      7995.4  Rx     18DA03F1  8  23 00 2A 02 DC 30 BC 00 
   247)      7998.3  Rx     18DA03F1  8  24 20 70 47 44 0F 44 EA 
   248)      8003.6  Rx     18DAF103  8  03 76 76 06 AA AA AA AA 
   249)      8017.4  Rx     18DA03F1  8  11 02 36 07 C1 04 C1 00 
   250)      8018.5  Rx     18DAF103  8  30 00 05 AA AA AA AA AA 
   251)      8019.3  Rx     18DA03F1  8  21 E0 18 30 BC 00 EB C2 
   252)      8022.3  Rx     18DA03F1  8  22 50 00 F0 31 B8 20 2A 
   253)      8025.3  Rx     18DA03F1  8  23 04 DB 20 3A 00 FA 02 
   254)      8028.3  Rx     18DA03F1  8  24 F1 00 20 70 47 91 40 
   255)      8031.3  Rx     18DA03F1  8  25 C2 F1 20 03 20 FA 03 
   256)      8034.3  Rx     18DA03F1  8  26 F3 19 43 90 40 70 47 
   257)      8037.3  Rx     18DA03F1  8  27 20 2A 04 DB 20 3A 21 
   258)      8040.3  Rx     18DA03F1  8  28 FA 02 F0 00 21 70 47 
   259)      8043.3  Rx     18DA03F1  8  29 21 FA 02 F3 D0 40 C2 
   260)      8046.3  Rx     18DA03F1  8  2A F1 20 02 91 40 08 43 
   261)      8049.3  Rx     18DA03F1  8  2B 19 46 70 47 20 2A 06 
   262)      8052.3  Rx     18DA03F1  8  2C DB CB 17 20 3A 41 FA 
   263)      8055.3  Rx     18DA03F1  8  2D 02 F0 43 EA E0 73 06 
   264)      8058.3  Rx     18DA03F1  8  2E E0 41 FA 02 F3 D0 40 
   265)      8061.3  Rx     18DA03F1  8  2F C2 F1 20 02 91 40 08 
   266)      8064.3  Rx     18DA03F1  8  20 43 19 46 70 47 00 29 
   267)      8067.3  Rx     18DA03F1  8  21 A8 BF 70 47 40 1C 49 
   268)      8070.3  Rx     18DA03F1  8  22 00 08 BF 20 F0 01 00 
   269)      8073.3  Rx     18DA03F1  8  23 70 47 10 B4 B0 FA 80 
   270)      8076.3  Rx     18DA03F1  8  24 FC 00 FA 0C F0 50 EA 
   271)      8079.3  Rx     18DA03F1  8  25 01 04 04 BF 10 BC 70 
   272)      8082.3  Rx     18DA03F1  8  26 47 49 B1 CC F1 20 04 
   273)      8085.3  Rx     18DA03F1  8  27 21 FA 04 F4 11 FA 0C 
   274)      8088.3  Rx     18DA03F1  8  28 F1 18 BF 01 21 21 43 
   275)      8091.3  Rx     18DA03F1  8  29 08 43 A3 EB 0C 01 CB 
   276)      8094.3  Rx     18DA03F1  8  2A 1D 4F EA 00 61 4F EA 
   277)      8097.3  Rx     18DA03F1  8  2B 10 20 42 BF 00 20 10 
   278)      8100.3  Rx     18DA03F1  8  2C BC 70 47 00 EB C3 50 
   279)      8103.3  Rx     18DA03F1  8  2D 10 44 00 29 A4 BF 10 
   280)      8106.3  Rx     18DA03F1  8  2E BC 70 47 40 1C 49 00 
   281)      8109.3  Rx     18DA03F1  8  2F 08 BF 20 F0 01 00 10 
   282)      8112.3  Rx     18DA03F1  8  20 BC 70 47 10 B5 14 1E 
   283)      8115.3  Rx     18DA03F1  8  21 73 F1 00 04 08 DA 40 
   284)      8118.3  Rx     18DA03F1  8  22 1C 41 F1 00 01 92 18 
   285)      8121.3  Rx     18DA03F1  8  23 5B 41 1A 43 01 D1 20 
   286)      8124.3  Rx     18DA03F1  8  24 F0 01 00 10 BD 2D E9 
   287)      8129.5  Rx     18DAF103  8  03 76 76 07 AA AA AA AA 
   288)      8143.4  Rx     18DA03F1  8  11 02 36 08 F0 4D 92 46 
   289)      8145.1  Rx     18DAF103  8  30 00 05 AA AA AA AA AA 
   290)      8146.2  Rx     18DA03F1  8  21 9B 46 11 B1 B1 FA 81 
   291)      8149.3  Rx     18DA03F1  8  22 F2 02 E0 B0 FA 80 F2 
   292)      8152.3  Rx     18DA03F1  8  23 20 32 90 46 FF F7 7B 
   293)      8155.3  Rx     18DA03F1  8  24 FF 04 46 0F 46 40 EA 
   294)      8158.3  Rx     18DA03F1  8  25 0A 00 41 EA 0B 01 53 
   295)      8161.3  Rx     18DA03F1  8  26 46 5A 46 08 43 13 D0 
   296)      8164.3  Rx     18DA03F1  8  27 11 46 53 EA 01 00 19 
   297)      8167.3  Rx     18DA03F1  8  28 D0 C8 F1 40 02 50 46 
   298)      8170.3  Rx     18DA03F1  8  29 FF F7 77 FF 05 46 0E 
   299)      8173.3  Rx     18DA03F1  8  2A 46 50 46 59 46 42 46 
   300)      8176.3  Rx     18DA03F1  8  2B FF F7 61 FF 08 43 05 
   301)      8179.3  Rx     18DA03F1  8  2C D0 01 20 04 E0 20 46 
   302)      8182.3  Rx     18DA03F1  8  2D 39 46 BD E8 F0 8D 00 
   303)      8185.3  Rx     18DA03F1  8  2E 20 05 43 46 EA E0 76 
   304)      8188.3  Rx     18DA03F1  8  2F 2C 43 37 43 0A 98 63 
   305)      8191.3  Rx     18DA03F1  8  20 05 E4 0A A0 EB 08 00 
   306)      8194.3  Rx     18DA03F1  8  21 00 22 FD 0A 44 EA 47 
   307)      8197.3  Rx     18DA03F1  8  22 54 0A 30 02 D5 00 20 
   308)      8200.3  Rx     18DA03F1  8  23 01 46 E9 E7 01 05 10 
   309)      8203.3  Rx     18DA03F1  8  24 19 69 41 DD E9 08 45 
   310)      8206.3  Rx     18DA03F1  8  25 00 19 69 41 BD E8 F0 
   311)      8209.3  Rx     18DA03F1  8  26 4D A2 E7 00 00 06 4C 
   312)      8212.3  Rx     18DA03F1  8  27 07 4D 06 E0 E0 68 40 
   313)      8215.3  Rx     18DA03F1  8  28 F0 01 03 94 E8 07 00 
   314)      8218.3  Rx     18DA03F1  8  29 98 47 10 34 AC 42 F6 
   315)      8221.3  Rx     18DA03F1  8  2A D3 FF F7 68 FD D4 C8 
   316)      8224.3  Rx     18DA03F1  8  2B 02 00 F4 C8 02 00 70 
   317)      8227.3  Rx     18DA03F1  8  2C B5 8C 18 10 F8 01 5B 
   318)      8230.3  Rx     18DA03F1  8  2D 15 F0 07 03 01 D1 10 
   319)      8233.3  Rx     18DA03F1  8  2E F8 01 3B 2A 11 06 D1 
   320)      8236.3  Rx     18DA03F1  8  2F 10 F8 01 2B 03 E0 10 
   321)      8239.3  Rx     18DA03F1  8  20 F8 01 6B 01 F8 01 6B 
   322)      8242.3  Rx     18DA03F1  8  21 5B 1E F9 D1 2B 07 05 
   323)      8245.3  Rx     18DA03F1  8  22 D4 00 23 52 1E 0D D4 
   324)      8248.3  Rx     18DA03F1  8  23 01 F8 01 3B FA E7 10 
   325)      8251.3  Rx     18DA03F1  8  24 F8 01 3B CB 1A 92 1C 
   326)      8256.6  Rx     18DAF103  8  03 76 76 08 AA AA AA AA 
   327)      8270.4  Rx     18DA03F1  8  11 02 36 09 03 E0 13 F8 
   328)      8271.6  Rx     18DAF103  8  30 00 05 AA AA AA AA AA 
   329)      8272.3  Rx     18DA03F1  8  21 01 5B 01 F8 01 5B 52 
   330)      8275.3  Rx     18DA03F1  8  22 1E F9 D5 A1 42 D8 D3 
   331)      8278.3  Rx     18DA03F1  8  23 00 20 70 BD 00 00 10 
   332)      8281.3  Rx     18DA03F1  8  24 B5 01 21 03 48 00 F0 
   333)      8284.3  Rx     18DA03F1  8  25 7D F8 03 48 0C F0 D6 
   334)      8287.3  Rx     18DA03F1  8  26 FE 10 BD 00 00 00 00 
   335)      8290.3  Rx     18DA03F1  8  27 04 40 C8 91 FF 1F 10 
   336)      8293.3  Rx     18DA03F1  8  28 B5 02 21 05 48 00 F0 
   337)      8296.3  Rx     18DA03F1  8  29 6F F8 05 48 0C F0 C8 
   338)      8299.3  Rx     18DA03F1  8  2A FE 04 48 0C F0 C5 FE 
   339)      8302.3  Rx     18DA03F1  8  2B 09 F0 A3 FC 10 BD 00 
   340)      8305.3  Rx     18DA03F1  8  2C 00 04 40 E4 91 FF 1F 
   341)      8308.3  Rx     18DA03F1  8  2D 00 92 FF 1F 2D E9 F0 
   342)      8311.3  Rx     18DA03F1  8  2E 41 07 46 0C 46 15 46 
   343)      8314.3  Rx     18DA03F1  8  2F 98 46 00 BF 1F 48 87 
   344)      8317.3  Rx     18DA03F1  8  20 42 01 D1 10 2D 04 D9 
   345)      8320.3  Rx     18DA03F1  8  21 1D 48 87 42 02 D1 08 
   346)      8323.3  Rx     18DA03F1  8  22 2D 00 D8 04 E0 40 F2 
   347)      8326.3  Rx     18DA03F1  8  23 65 11 1A A0 02 F0 73 
   348)      8329.3  Rx     18DA03F1  8  24 FC 00 BF 00 BF 0C B1 
   349)      8332.3  Rx     18DA03F1  8  25 01 2C 00 D1 04 E0 4F 
   350)      8335.3  Rx     18DA03F1  8  26 F4 B3 71 15 A0 02 F0 
   351)      8338.3  Rx     18DA03F1  8  27 68 FC 00 BF 00 BF B8 
   352)      8341.3  Rx     18DA03F1  8  28 F1 00 0F 02 D0 B8 F1 
   353)      8344.3  Rx     18DA03F1  8  29 01 0F 00 D1 04 E0 40 
   354)      8347.3  Rx     18DA03F1  8  2A F2 67 11 0E A0 02 F0 
   355)      8350.3  Rx     18DA03F1  8  2B 5A FC 00 BF 07 F1 0C 
   356)      8353.3  Rx     18DA03F1  8  2C 00 00 EB 84 06 B8 F1 
   357)      8356.3  Rx     18DA03F1  8  2D 01 0F 05 D1 30 68 01 
   358)      8359.3  Rx     18DA03F1  8  2E 21 A9 40 08 43 30 60 
   359)      8362.3  Rx     18DA03F1  8  2F 04 E0 30 68 01 21 A9 
   360)      8365.3  Rx     18DA03F1  8  20 40 88 43 30 60 BD E8 
   361)      8368.3  Rx     18DA03F1  8  21 F0 81 00 00 00 00 04 
   362)      8371.3  Rx     18DA03F1  8  22 40 00 04 04 40 2E 2E 
   363)      8374.3  Rx     18DA03F1  8  23 5C 64 72 69 76 65 72 
   364)      8377.3  Rx     18DA03F1  8  24 73 5C 68 63 33 32 5F 
   365)      8382.6  Rx     18DAF103  8  03 76 76 09 AA AA AA AA 
   366)      8396.4  Rx     18DA03F1  8  11 02 36 0A 6C 6C 5F 64 
   367)      8397.6  Rx     18DAF103  8  30 00 05 AA AA AA AA AA 
   368)      8398.3  Rx     18DA03F1  8  21 72 69 76 65 72 5C 73 
   369)      8401.3  Rx     18DA03F1  8  22 72 63 5C 68 63 33 32 
   370)      8404.3  Rx     18DA03F1  8  23 5F 6C 6C 5F 61 64 63 
   371)      8407.3  Rx     18DA03F1  8  24 2E 63 00 70 B5 05 46 
   372)      8410.3  Rx     18DA03F1  8  25 0C 46 00 BF 0F 48 85 
   373)      8413.3  Rx     18DA03F1  8  26 42 02 D0 0F 48 85 42 
   374)      8416.4  Rx     18DA03F1  8  27 00 D1 04 E0 40 F2 AB 
   375)      8419.4  Rx     18DA03F1  8  28 21 0D A0 02 F0 1A FC 
   376)      8422.3  Rx     18DA03F1  8  29 00 BF 00 BF 24 B1 44 
   377)      8425.4  Rx     18DA03F1  8  2A F0 03 00 03 28 00 D1 
   378)      8428.4  Rx     18DA03F1  8  2B 04 E0 4F F4 2B 71 06 
   379)      8431.3  Rx     18DA03F1  8  2C A0 02 F0 0D FC 00 BF 
   380)      8434.3  Rx     18DA03F1  8  2D 84 F0 03 00 85 F8 46 
   381)      8437.4  Rx     18DA03F1  8  2E 00 70 BD 00 00 00 00 
   382)      8440.3  Rx     18DA03F1  8  2F 04 40 00 04 04 40 2E 
   383)      8443.3  Rx     18DA03F1  8  20 2E 5C 64 72 69 76 65 
   384)      8446.3  Rx     18DA03F1  8  21 72 73 5C 68 63 33 32 
   385)      8449.3  Rx     18DA03F1  8  22 5F 6C 6C 5F 64 72 69 
   386)      8452.3  Rx     18DA03F1  8  23 76 65 72 5C 73 72 63 
   387)      8455.3  Rx     18DA03F1  8  24 5C 68 63 33 32 5F 6C 
   388)      8458.3  Rx     18DA03F1  8  25 6C 5F 61 64 63 2E 63 
   389)      8461.3  Rx     18DA03F1  8  26 00 70 B5 05 46 0C 46 
   390)      8464.3  Rx     18DA03F1  8  27 00 BF 0A 48 85 42 01 
   391)      8467.4  Rx     18DA03F1  8  28 D1 10 2C 04 D9 09 48 
   392)      8470.3  Rx     18DA03F1  8  29 85 42 02 D1 08 2C 00 
   393)      8473.3  Rx     18DA03F1  8  2A D8 04 E0 40 F2 76 21 
   394)      8476.4  Rx     18DA03F1  8  2B 06 A0 02 F0 D8 FB 00 
   395)      8479.3  Rx     18DA03F1  8  2C BF 05 F1 50 00 30 F8 
   396)      8482.4  Rx     18DA03F1  8  2D 14 00 70 BD 00 00 04 
   397)      8485.4  Rx     18DA03F1  8  2E 40 00 04 04 40 2E 2E 
   398)      8488.3  Rx     18DA03F1  8  2F 5C 64 72 69 76 65 72 
   399)      8491.3  Rx     18DA03F1  8  20 73 5C 68 63 33 32 5F 
   400)      8494.3  Rx     18DA03F1  8  21 6C 6C 5F 64 72 69 76 
   401)      8497.3  Rx     18DA03F1  8  22 65 72 5C 73 72 63 5C 
   402)      8500.3  Rx     18DA03F1  8  23 68 63 33 32 5F 6C 6C 
   403)      8503.3  Rx     18DA03F1  8  24 5F 61 64 63 2E 63 00 
   404)      8508.6  Rx     18DAF103  8  03 76 76 0A AA AA AA AA 
   405)      8522.4  Rx     18DA03F1  8  11 02 36 0B 70 B5 05 46 
   406)      8523.6  Rx     18DAF103  8  30 00 05 AA AA AA AA AA 
   407)      8524.3  Rx     18DA03F1  8  21 0C 46 6F F0 02 06 00 
   408)      8527.3  Rx     18DA03F1  8  22 BF 21 48 85 42 02 D0 
   409)      8530.3  Rx     18DA03F1  8  23 21 48 85 42 00 D1 03 
   410)      8533.3  Rx     18DA03F1  8  24 E0 E5 21 1F A0 02 F0 
   411)      8536.3  Rx     18DA03F1  8  25 A7 FB 00 BF 00 2C 33 
   412)      8539.3  Rx     18DA03F1  8  26 D0 00 BF 20 88 40 B1 
   413)      8542.3  Rx     18DA03F1  8  27 20 88 01 28 05 D0 20 
   414)      8545.3  Rx     18DA03F1  8  28 88 02 28 02 D0 20 88 
   415)      8548.3  Rx     18DA03F1  8  29 03 28 00 D1 03 E0 E8 
   416)      8551.3  Rx     18DA03F1  8  2A 21 15 A0 02 F0 93 FB 
   417)      8554.3  Rx     18DA03F1  8  2B 00 BF 00 BF 60 88 20 
   418)      8557.3  Rx     18DA03F1  8  2C 28 04 D0 60 88 10 28 
   419)      8560.3  Rx     18DA03F1  8  2D 01 D0 60 88 00 B9 03 
   420)      8563.3  Rx     18DA03F1  8  2E E0 E9 21 0E A0 02 F0 
   421)      8566.3  Rx     18DA03F1  8  2F 84 FB 00 BF 00 BF A0 
   422)      8569.3  Rx     18DA03F1  8  20 88 10 B1 A0 88 80 28 
   423)      8572.3  Rx     18DA03F1  8  21 00 D1 03 E0 EA 21 08 
   424)      8575.3  Rx     18DA03F1  8  22 A0 02 F0 78 FB 00 BF 
   425)      8578.3  Rx     18DA03F1  8  23 20 88 61 88 08 43 A1 
   426)      8581.3  Rx     18DA03F1  8  24 88 08 43 68 80 00 26 
   427)      8584.3  Rx     18DA03F1  8  25 30 46 70 BD 00 00 04 
   428)      8587.3  Rx     18DA03F1  8  26 40 00 04 04 40 2E 2E 
   429)      8590.3  Rx     18DA03F1  8  27 5C 64 72 69 76 65 72 
   430)      8593.3  Rx     18DA03F1  8  28 73 5C 68 63 33 32 5F 
   431)      8596.3  Rx     18DA03F1  8  29 6C 6C 5F 64 72 69 76 
   432)      8599.3  Rx     18DA03F1  8  2A 65 72 5C 73 72 63 5C 
   433)      8602.3  Rx     18DA03F1  8  2B 68 63 33 32 5F 6C 6C 
   434)      8605.3  Rx     18DA03F1  8  2C 5F 61 64 63 2E 63 00 
   435)      8608.3  Rx     18DA03F1  8  2D 70 B5 04 46 0D 46 16 
   436)      8611.3  Rx     18DA03F1  8  2E 46 00 BF 19 48 84 42 
   437)      8614.4  Rx     18DA03F1  8  2F 02 D0 18 48 84 42 00 
   438)      8617.3  Rx     18DA03F1  8  20 D1 04 E0 40 F2 3B 21 
   439)      8620.4  Rx     18DA03F1  8  21 16 A0 02 F0 43 FB 00 
   440)      8623.4  Rx     18DA03F1  8  22 BF 00 BF 25 B1 45 F0 
   441)      8626.4  Rx     18DA03F1  8  23 03 00 03 28 00 D1 04 
   442)      8629.4  Rx     18DA03F1  8  24 E0 4F F4 0F 71 10 A0 
   443)      8634.6  Rx     18DAF103  8  03 76 76 0B AA AA AA AA 
   444)      8648.5  Rx     18DA03F1  8  11 02 36 0C 02 F0 36 FB 
   445)      8649.7  Rx     18DAF103  8  30 00 05 AA AA AA AA AA 
   446)      8650.4  Rx     18DA03F1  8  21 00 BF 00 BF 0E B1 01 
   447)      8653.4  Rx     18DA03F1  8  22 2E 00 D1 04 E0 40 F2 
   448)      8656.3  Rx     18DA03F1  8  23 3D 21 0A A0 02 F0 2B 
   449)      8659.4  Rx     18DA03F1  8  24 FB 00 BF 01 2E 05 D1 
   450)      8662.4  Rx     18DA03F1  8  25 94 F8 47 00 28 43 84 
   451)      8665.3  Rx     18DA03F1  8  26 F8 47 00 04 E0 94 F8 
   452)      8668.3  Rx     18DA03F1  8  27 47 00 A8 43 84 F8 47 
   453)      8671.4  Rx     18DA03F1  8  28 00 70 BD 00 00 04 40 
   454)      8674.3  Rx     18DA03F1  8  29 00 04 04 40 2E 2E 5C 
   455)      8677.3  Rx     18DA03F1  8  2A 64 72 69 76 65 72 73 
   456)      8680.4  Rx     18DA03F1  8  2B 5C 68 63 33 32 5F 6C 
   457)      8683.3  Rx     18DA03F1  8  2C 6C 5F 64 72 69 76 65 
   458)      8686.3  Rx     18DA03F1  8  2D 72 5C 73 72 63 5C 68 
   459)      8689.3  Rx     18DA03F1  8  2E 63 33 32 5F 6C 6C 5F 
   460)      8692.4  Rx     18DA03F1  8  2F 61 64 63 2E 63 00 70 
   461)      8695.3  Rx     18DA03F1  8  20 B5 04 46 00 25 00 BF 
   462)      8698.4  Rx     18DA03F1  8  21 0A 48 84 42 02 D0 0A 
   463)      8701.4  Rx     18DA03F1  8  22 48 84 42 00 D1 04 E0 
   464)      8704.3  Rx     18DA03F1  8  23 40 F2 53 21 08 A0 02 
   465)      8707.4  Rx     18DA03F1  8  24 F0 F2 FA 00 BF 20 78 
   466)      8710.3  Rx     18DA03F1  8  25 01 28 01 D1 C5 1F 01 
   467)      8713.3  Rx     18DA03F1  8  26 E0 01 20 20 70 28 46 
   468)      8716.3  Rx     18DA03F1  8  27 70 BD 00 00 04 40 00 
   469)      8719.3  Rx     18DA03F1  8  28 04 04 40 2E 2E 5C 64 
   470)      8722.3  Rx     18DA03F1  8  29 72 69 76 65 72 73 5C 
   471)      8725.3  Rx     18DA03F1  8  2A 68 63 33 32 5F 6C 6C 
   472)      8728.3  Rx     18DA03F1  8  2B 5F 64 72 69 76 65 72 
   473)      8731.3  Rx     18DA03F1  8  2C 5C 73 72 63 5C 68 63 
   474)      8734.3  Rx     18DA03F1  8  2D 33 32 5F 6C 6C 5F 61 
   475)      8737.3  Rx     18DA03F1  8  2E 64 63 2E 63 00 01 46 
   476)      8740.3  Rx     18DA03F1  8  2F 6F F0 02 00 21 B1 00 
   477)      8743.3  Rx     18DA03F1  8  20 22 0A 80 4A 80 8A 80 
   478)      8746.3  Rx     18DA03F1  8  21 00 20 70 47 70 B5 04 
   479)      8749.3  Rx     18DA03F1  8  22 46 0D 46 16 46 00 BF 
   480)      8752.3  Rx     18DA03F1  8  23 1A 48 84 42 02 D0 19 
   481)      8755.3  Rx     18DA03F1  8  24 48 84 42 00 D1 04 E0 
   482)      8760.5  Rx     18DAF103  8  03 76 76 0C AA AA AA AA 
   483)      8774.4  Rx     18DA03F1  8  11 02 36 0D 40 F2 22 21 
   484)      8775.6  Rx     18DAF103  8  30 00 05 AA AA AA AA AA 
   485)      8776.3  Rx     18DA03F1  8  21 17 A0 02 F0 B3 FA 00 
   486)      8779.3  Rx     18DA03F1  8  22 BF 00 BF 0D B1 01 2D 
   487)      8782.3  Rx     18DA03F1  8  23 00 D1 04 E0 40 F2 23 
   488)      8785.3  Rx     18DA03F1  8  24 21 12 A0 02 F0 A8 FA 
   489)      8788.3  Rx     18DA03F1  8  25 00 BF 00 BF 0E B1 01 
   490)      8791.3  Rx     18DA03F1  8  26 2E 00 D1 04 E0 4F F4 
   491)      8794.3  Rx     18DA03F1  8  27 09 71 0C A0 02 F0 9D 
   492)      8797.3  Rx     18DA03F1  8  28 FA 00 BF 01 2E 07 D1 
   493)      8800.3  Rx     18DA03F1  8  29 60 89 EA 00 80 21 91 
   494)      8803.3  Rx     18DA03F1  8  2A 40 89 B2 08 43 60 81 
   495)      8806.3  Rx     18DA03F1  8  2B 05 E0 60 89 EA 00 80 
   496)      8809.3  Rx     18DA03F1  8  2C 21 91 40 88 43 60 81 
   497)      8812.3  Rx     18DA03F1  8  2D 70 BD 00 00 00 00 04 
   498)      8815.3  Rx     18DA03F1  8  2E 40 00 04 04 40 2E 2E 
   499)      8818.3  Rx     18DA03F1  8  2F 5C 64 72 69 76 65 72 
   500)      8821.3  Rx     18DA03F1  8  20 73 5C 68 63 33 32 5F 
   501)      8824.3  Rx     18DA03F1  8  21 6C 6C 5F 64 72 69 76 
   502)      8827.3  Rx     18DA03F1  8  22 65 72 5C 73 72 63 5C 
   503)      8830.3  Rx     18DA03F1  8  23 68 63 33 32 5F 6C 6C 
   504)      8833.3  Rx     18DA03F1  8  24 5F 61 64 63 2E 63 00 
   505)      8836.3  Rx     18DA03F1  8  25 70 B5 06 46 0C 46 15 
   506)      8839.3  Rx     18DA03F1  8  26 46 00 BF 1B 48 86 42 
   507)      8842.3  Rx     18DA03F1  8  27 02 D0 1A 48 86 42 00 
   508)      8845.3  Rx     18DA03F1  8  28 D1 04 E0 40 F2 0B 21 
   509)      8848.3  Rx     18DA03F1  8  29 18 A0 02 F0 5F FA 00 
   510)      8851.3  Rx     18DA03F1  8  2A BF 00 BF 0C B1 01 2C 
   511)      8854.3  Rx     18DA03F1  8  2B 00 D1 04 E0 4F F4 03 
   512)      8857.3  Rx     18DA03F1  8  2C 71 13 A0 02 F0 54 FA 
   513)      8860.3  Rx     18DA03F1  8  2D 00 BF 00 BF 2D B1 01 
   514)      8863.3  Rx     18DA03F1  8  2E 2D 03 D0 02 2D 01 D0 
   515)      8866.3  Rx     18DA03F1  8  2F 03 2D 00 D1 04 E0 40 
   516)      8869.3  Rx     18DA03F1  8  20 F2 0D 21 0B A0 02 F0 
   517)      8872.3  Rx     18DA03F1  8  21 45 FA 00 BF E0 06 04 
   518)      8875.3  Rx     18DA03F1  8  22 0E 70 89 03 21 A1 40 
   519)      8878.3  Rx     18DA03F1  8  23 88 43 05 FA 04 F1 03 
   520)      8881.3  Rx     18DA03F1  8  24 22 A2 40 92 B2 11 40 
   521)      8886.6  Rx     18DAF103  8  03 76 76 0D AA AA AA AA 
   522)      8900.4  Rx     18DA03F1  8  11 02 36 0E 08 43 70 81 
   523)      8901.6  Rx     18DAF103  8  30 00 05 AA AA AA AA AA 
   524)      8902.3  Rx     18DA03F1  8  21 70 BD 00 00 00 00 04 
   525)      8905.3  Rx     18DA03F1  8  22 40 00 04 04 40 2E 2E 
   526)      8908.3  Rx     18DA03F1  8  23 5C 64 72 69 76 65 72 
   527)      8911.3  Rx     18DA03F1  8  24 73 5C 68 63 33 32 5F 
   528)      8914.3  Rx     18DA03F1  8  25 6C 6C 5F 64 72 69 76 
   529)      8917.3  Rx     18DA03F1  8  26 65 72 5C 73 72 63 5C 
   530)      8920.3  Rx     18DA03F1  8  27 68 63 33 32 5F 6C 6C 
   531)      8923.3  Rx     18DA03F1  8  28 5F 61 64 63 2E 63 00 
   532)      8926.3  Rx     18DA03F1  8  29 70 B5 04 46 0D 46 00 
   533)      8929.3  Rx     18DA03F1  8  2A BF 0A 48 84 42 07 D3 
   534)      8932.3  Rx     18DA03F1  8  2B 09 48 68 30 84 42 03 
   535)      8935.3  Rx     18DA03F1  8  2C D8 04 F0 03 00 00 B9 
   536)      8938.3  Rx     18DA03F1  8  2D 03 E0 8F 21 05 A0 02 
   537)      8941.3  Rx     18DA03F1  8  2E F0 07 FA 00 BF 20 68 
   538)      8944.3  Rx     18DA03F1  8  2F 65 F3 08 00 20 60 70 
   539)      8947.3  Rx     18DA03F1  8  20 BD 00 00 04 08 01 40 
   540)      8950.3  Rx     18DA03F1  8  21 2E 2E 5C 64 72 69 76 
   541)      8953.3  Rx     18DA03F1  8  22 65 72 73 5C 68 63 33 
   542)      8956.3  Rx     18DA03F1  8  23 32 5F 6C 6C 5F 64 72 
   543)      8959.3  Rx     18DA03F1  8  24 69 76 65 72 5C 73 72 
   544)      8962.3  Rx     18DA03F1  8  25 63 5C 68 63 33 32 5F 
   545)      8965.3  Rx     18DA03F1  8  26 6C 6C 5F 61 6F 73 2E 
   546)      8968.3  Rx     18DA03F1  8  27 63 00 70 B5 04 46 25 
   547)      8971.3  Rx     18DA03F1  8  28 46 07 48 28 60 61 20 
   548)      8974.3  Rx     18DA03F1  8  29 A8 80 06 48 A8 60 1A 
   549)      8977.3  Rx     18DA03F1  8  2A 20 A8 81 01 20 68 61 
   550)      8980.3  Rx     18DA03F1  8  2B 28 46 06 F0 14 F9 70 
   551)      8983.3  Rx     18DA03F1  8  2C BD 00 00 00 B0 02 00 
   552)      8986.3  Rx     18DA03F1  8  2D 8C B4 02 00 70 B5 04 
   553)      8989.3  Rx     18DA03F1  8  2E 46 D4 F8 90 01 02 F0 
   554)      8992.3  Rx     18DA03F1  8  2F AE FE 05 46 B5 F5 80 
   555)      8995.3  Rx     18DA03F1  8  20 5F 73 D0 22 DC 40 2D 
   556)      8998.3  Rx     18DA03F1  8  21 71 D0 0E DC 08 2D 72 
   557)      9001.3  Rx     18DA03F1  8  22 D0 06 DC 01 2D 45 D0 
   558)      9004.3  Rx     18DA03F1  8  23 02 2D 50 D0 04 2D 69 
   559)      9007.3  Rx     18DA03F1  8  24 D1 5A E0 10 2D 73 D0 
   560)      9012.6  Rx     18DAF103  8  03 76 76 0E AA AA AA AA 
   561)      9026.4  Rx     18DA03F1  8  11 02 36 0F 20 2D F9 D1 
   562)      9027.6  Rx     18DAF103  8  30 00 05 AA AA AA AA AA 
   563)      9028.3  Rx     18DA03F1  8  21 80 E0 B5 F5 00 7F 78 
   564)      9031.3  Rx     18DA03F1  8  22 D0 05 DC 80 2D 76 D0 
   565)      9034.3  Rx     18DA03F1  8  23 B5 F5 80 7F EF D1 9D 
   566)      9037.3  Rx     18DA03F1  8  24 E0 B5 F5 80 6F 70 D0 
   567)      9040.3  Rx     18DA03F1  8  25 B5 F5 00 6F E8 D1 BD 
   568)      9043.3  Rx     18DA03F1  8  26 E0 B5 F5 00 2F 6A D0 
   569)      9046.3  Rx     18DA03F1  8  27 14 DC B5 F5 80 3F 67 
   570)      9049.3  Rx     18DA03F1  8  28 D0 09 DC B5 F5 00 5F 
   571)      9052.3  Rx     18DA03F1  8  29 6F D0 B5 F5 80 4F 6D 
   572)      9055.3  Rx     18DA03F1  8  2A D0 B5 F5 00 4F D6 D1 
   573)      9058.3  Rx     18DA03F1  8  2B DF E0 B5 F5 00 3F 67 
   574)      9061.3  Rx     18DA03F1  8  2C D0 B5 F5 80 2F CF D1 
   575)      9064.3  Rx     18DA03F1  8  2D FF E0 B5 F5 80 0F 77 
   576)      9067.3  Rx     18DA03F1  8  2E D0 06 DC B5 F5 80 1F 
   577)      9070.3  Rx     18DA03F1  8  2F 74 D0 B5 F5 00 1F C4 
   578)      9073.3  Rx     18DA03F1  8  20 D1 1B E1 B5 F5 00 0F 
   579)      9076.3  Rx     18DA03F1  8  21 6E D0 B5 F1 80 7F BD 
   580)      9079.3  Rx     18DA03F1  8  22 D1 3B E1 01 21 04 F5 
   581)      9082.3  Rx     18DA03F1  8  23 BC 70 06 F0 B6 F8 01 
   582)      9085.3  Rx     18DA03F1  8  24 21 D4 F8 90 01 02 F0 
   583)      9088.3  Rx     18DA03F1  8  25 E7 FD 01 20 60 70 3C 
   584)      9091.3  Rx     18DA03F1  8  26 E1 02 21 04 F5 BC 70 
   585)      9094.3  Rx     18DA03F1  8  27 06 F0 A9 F8 02 21 D4 
   586)      9097.3  Rx     18DA03F1  8  28 F8 90 01 02 F0 DA FD 
   587)      9100.3  Rx     18DA03F1  8  29 00 20 60 70 2F E1 04 
   588)      9103.3  Rx     18DA03F1  8  2A 21 04 F5 BC 70 06 F0 
   589)      9106.3  Rx     18DA03F1  8  2B 9C F8 04 21 D4 F8 90 
   590)      9109.3  Rx     18DA03F1  8  2C 01 02 F0 CD FD 24 E1 
   591)      9112.3  Rx     18DA03F1  8  2D 79 E0 2B E0 01 E0 1F 
   592)      9115.3  Rx     18DA03F1  8  2E E1 0A E0 08 21 04 F5 
   593)      9118.3  Rx     18DA03F1  8  2F BC 70 06 F0 8C F8 08 
   594)      9121.3  Rx     18DA03F1  8  20 21 D4 F8 90 01 02 F0 
   595)      9124.3  Rx     18DA03F1  8  21 BD FD 14 E1 10 21 04 
   596)      9127.3  Rx     18DA03F1  8  22 F5 BC 70 06 F0 81 F8 
   597)      9130.3  Rx     18DA03F1  8  23 10 21 D4 F8 90 01 02 
   598)      9133.3  Rx     18DA03F1  8  24 F0 B2 FD 09 E1 37 E0 
   599)      9138.6  Rx     18DAF103  8  03 76 76 0F AA AA AA AA 
   600)      9152.4  Rx     18DA03F1  8  11 02 36 10 1B E0 42 E0 
   601)      9153.6  Rx     18DAF103  8  30 00 05 AA AA AA AA AA 
   602)      9154.3  Rx     18DA03F1  8  21 B6 E0 8E E0 20 21 04 
   603)      9157.3  Rx     18DA03F1  8  22 F5 BC 70 06 F0 71 F8 
   604)      9160.3  Rx     18DA03F1  8  23 20 21 D4 F8 90 01 02 
   605)      9163.3  Rx     18DA03F1  8  24 F0 A2 FD F9 E0 5B E0 
   606)      9166.3  Rx     18DA03F1  8  25 67 E0 8D E0 40 21 04 
   607)      9169.3  Rx     18DA03F1  8  26 F5 BC 70 06 F0 63 F8 
   608)      9172.3  Rx     18DA03F1  8  27 40 21 D4 F8 90 01 02 
   609)      9175.3  Rx     18DA03F1  8  28 F0 94 FD EB E0 80 21 
   610)      9178.3  Rx     18DA03F1  8  29 04 F5 BC 70 06 F0 58 
   611)      9181.3  Rx     18DA03F1  8  2A F8 80 21 D4 F8 90 01 
   612)      9184.6  Rx     18DA03F1  8  2B 02 F0 89 FD E0 E0 B7 
   613)      9187.3  Rx     18DA03F1  8  2C E0 9C E0 C2 E0 4F F4 
   614)      9190.3  Rx     18DA03F1  8  2D 80 71 04 F5 BC 70 06 
   615)      9193.3  Rx     18DA03F1  8  2E F0 49 F8 4F F4 80 71 
   616)      9196.3  Rx     18DA03F1  8  2F D4 F8 90 01 02 F0 79 
   617)      9199.3  Rx     18DA03F1  8  20 FD D0 E0 4F F4 00 71 
   618)      9202.3  Rx     18DA03F1  8  21 04 F5 BC 70 06 F0 3C 
   619)      9205.3  Rx     18DA03F1  8  22 F8 4F F4 00 71 D4 F8 
   620)      9208.3  Rx     18DA03F1  8  23 90 01 02 F0 6C FD C3 
   621)      9211.3  Rx     18DA03F1  8  24 E0 4F F4 80 61 04 F5 
   622)      9214.3  Rx     18DA03F1  8  25 BC 70 06 F0 2F F8 4F 
   623)      9217.3  Rx     18DA03F1  8  26 F4 80 61 D4 F8 90 01 
   624)      9220.3  Rx     18DA03F1  8  27 02 F0 5F FD B6 E0 4F 
   625)      9223.3  Rx     18DA03F1  8  28 F4 00 61 04 F5 BC 70 
   626)      9226.4  Rx     18DA03F1  8  29 06 F0 22 F8 4F F4 00 
   627)      9229.3  Rx     18DA03F1  8  2A 61 D4 F8 90 01 02 F0 
   628)      9232.3  Rx     18DA03F1  8  2B 52 FD A9 E0 4F F4 80 
   629)      9235.3  Rx     18DA03F1  8  2C 51 04 F5 BC 70 06 F0 
   630)      9238.3  Rx     18DA03F1  8  2D 15 F8 4F F4 80 51 D4 
   631)      9241.3  Rx     18DA03F1  8  2E F8 90 01 02 F0 45 FD 
   632)      9244.3  Rx     18DA03F1  8  2F 9C E0 4F F4 00 51 04 
   633)      9247.3  Rx     18DA03F1  8  20 F5 BC 70 06 F0 08 F8 
   634)      9250.3  Rx     18DA03F1  8  21 4F F4 00 51 D4 F8 90 
   635)      9253.3  Rx     18DA03F1  8  22 01 02 F0 38 FD 8F E0 
   636)      9256.3  Rx     18DA03F1  8  23 4F F4 80 41 04 F5 BC 
   637)      9259.3  Rx     18DA03F1  8  24 70 05 F0 FB FF 4F F4 
   638)      9264.6  Rx     18DAF103  8  03 76 76 10 AA AA AA AA 
   639)      9278.4  Rx     18DA03F1  8  11 02 36 11 80 41 D4 F8 
   640)      9279.6  Rx     18DAF103  8  30 00 05 AA AA AA AA AA 
   641)      9280.3  Rx     18DA03F1  8  21 90 01 02 F0 2B FD 82 
   642)      9283.3  Rx     18DA03F1  8  22 E0 4F F4 00 41 04 F5 
   643)      9286.3  Rx     18DA03F1  8  23 BC 70 05 F0 EE FF 4F 
   644)      9289.3  Rx     18DA03F1  8  24 F4 00 41 D4 F8 90 01 
   645)      9292.3  Rx     18DA03F1  8  25 02 F0 1E FD 75 E0 4F 
   646)      9295.3  Rx     18DA03F1  8  26 F4 80 31 04 F5 BC 70 
   647)      9298.3  Rx     18DA03F1  8  27 05 F0 E1 FF 4F F4 80 
   648)      9301.3  Rx     18DA03F1  8  28 31 D4 F8 90 01 02 F0 
   649)      9304.3  Rx     18DA03F1  8  29 11 FD 68 E0 4F F4 00 
   650)      9307.3  Rx     18DA03F1  8  2A 31 04 F5 BC 70 05 F0 
   651)      9310.3  Rx     18DA03F1  8  2B D4 FF 4F F4 00 31 D4 
   652)      9313.3  Rx     18DA03F1  8  2C F8 90 01 02 F0 04 FD 
   653)      9316.3  Rx     18DA03F1  8  2D 5B E0 4F F4 80 21 04 
   654)      9319.3  Rx     18DA03F1  8  2E F5 BC 70 05 F0 C7 FF 
   655)      9322.3  Rx     18DA03F1  8  2F 4F F4 80 21 D4 F8 90 
   656)      9325.3  Rx     18DA03F1  8  20 01 02 F0 F7 FC 4E E0 
   657)      9328.3  Rx     18DA03F1  8  21 4F F4 00 21 04 F5 BC 
   658)      9331.3  Rx     18DA03F1  8  22 70 05 F0 BA FF 4F F4 
   659)      9334.3  Rx     18DA03F1  8  23 00 21 D4 F8 90 01 02 
   660)      9337.3  Rx     18DA03F1  8  24 F0 EA FC 41 E0 4F F4 
   661)      9340.3  Rx     18DA03F1  8  25 80 11 04 F5 BC 70 05 
   662)      9343.3  Rx     18DA03F1  8  26 F0 AD FF 4F F4 80 11 
   663)      9346.3  Rx     18DA03F1  8  27 D4 F8 90 01 02 F0 DD 
   664)      9349.3  Rx     18DA03F1  8  28 FC 34 E0 4F F4 00 11 
   665)      9352.3  Rx     18DA03F1  8  29 04 F5 BC 70 05 F0 A0 
   666)      9355.3  Rx     18DA03F1  8  2A FF 4F F4 00 11 D4 F8 
   667)      9358.3  Rx     18DA03F1  8  2B 90 01 02 F0 D0 FC 27 
   668)      9361.3  Rx     18DA03F1  8  2C E0 4F F4 80 01 04 F5 
   669)      9364.3  Rx     18DA03F1  8  2D BC 70 05 F0 93 FF 4F 
   670)      9367.3  Rx     18DA03F1  8  2E F4 80 01 D4 F8 90 01 
   671)      9370.3  Rx     18DA03F1  8  2F 02 F0 C3 FC 1A E0 4F 
   672)      9373.3  Rx     18DA03F1  8  20 F4 00 01 04 F5 BC 70 
   673)      9376.3  Rx     18DA03F1  8  21 05 F0 86 FF 4F F4 00 
   674)      9379.3  Rx     18DA03F1  8  22 01 D4 F8 90 01 02 F0 
   675)      9382.3  Rx     18DA03F1  8  23 B6 FC 0D E0 4F F0 80 
   676)      9385.3  Rx     18DA03F1  8  24 71 04 F5 BC 70 05 F0 
   677)      9390.6  Rx     18DAF103  8  03 76 76 11 AA AA AA AA 
   678)      9404.4  Rx     18DA03F1  8  11 02 36 12 79 FF 4F F0 
   679)      9405.6  Rx     18DAF103  8  30 00 05 AA AA AA AA AA 
   680)      9406.3  Rx     18DA03F1  8  21 80 71 D4 F8 90 01 02 
   681)      9409.3  Rx     18DA03F1  8  22 F0 A9 FC 00 E0 00 BF 
   682)      9412.3  Rx     18DA03F1  8  23 00 BF 70 BD 00 00 00 
   683)      9415.3  Rx     18DA03F1  8  24 B5 95 B0 07 A8 07 F0 
   684)      9418.3  Rx     18DA03F1  8  25 DB FE 1D 49 07 98 88 
   685)      9421.3  Rx     18DA03F1  8  26 42 01 D0 15 B0 00 BD 
   686)      9424.3  Rx     18DA03F1  8  27 0D 99 08 98 CD E9 00 
   687)      9427.3  Rx     18DA03F1  8  28 01 19 A2 1A 49 00 20 
   688)      9430.4  Rx     18DA03F1  8  29 07 9B 05 F0 6B FB 0D 
   689)      9433.3  Rx     18DA03F1  8  2A 98 11 28 1D D1 14 A2 
   690)      9436.3  Rx     18DA03F1  8  2B 17 A1 00 20 05 F0 63 
   691)      9439.4  Rx     18DA03F1  8  2C FB 18 21 01 A8 FF F7 
   692)      9442.3  Rx     18DA03F1  8  2D 19 F9 20 48 01 90 01 
   693)      9445.3  Rx     18DA03F1  8  2E 20 8D F8 08 00 08 20 
   694)      9448.4  Rx     18DA03F1  8  2F 8D F8 0C 00 04 20 8D 
   695)      9451.3  Rx     18DA03F1  8  20 F8 0D 00 51 21 8D F8 
   696)      9454.3  Rx     18DA03F1  8  21 0E 10 01 21 8D F8 0F 
   697)      9457.3  Rx     18DA03F1  8  22 10 01 A8 01 F0 89 FB 
   698)      9460.3  Rx     18DA03F1  8  23 00 BF 07 F0 A2 FE 04 
   699)      9463.3  Rx     18DA03F1  8  24 A2 15 A1 00 20 05 F0 
   700)      9466.3  Rx     18DA03F1  8  25 43 FB 00 BF C9 E7 00 
   701)      9469.3  Rx     18DA03F1  8  26 00 00 53 44 55 4D 41 
   702)      9472.3  Rx     18DA03F1  8  27 49 4E 00 00 00 00 70 
   703)      9475.3  Rx     18DA03F1  8  28 BF 02 00 1B 5B 33 36 
   704)      9478.3  Rx     18DA03F1  8  29 6D 5B 25 73 5D 20 53 
   705)      9481.3  Rx     18DA03F1  8  2A 65 6E 64 69 6E 67 20 
   706)      9484.3  Rx     18DA03F1  8  2B 70 65 6E 64 69 6E 67 
   707)      9487.3  Rx     18DA03F1  8  2C 20 31 31 20 30 31 20 
   708)      9490.3  Rx     18DA03F1  8  2D 41 43 4B 20 28 35 31 
   709)      9493.3  Rx     18DA03F1  8  2E 20 30 31 29 0D 0A 1B 
   710)      9496.3  Rx     18DA03F1  8  2F 5B 30 6D 0D 0A 00 03 
   711)      9499.3  Rx     18DA03F1  8  20 F1 DA 18 1B 5B 33 36 
   712)      9502.3  Rx     18DA03F1  8  21 6D 5B 25 73 5D 20 55 
   713)      9505.3  Rx     18DA03F1  8  22 44 53 20 53 68 61 72 
   714)      9508.3  Rx     18DA03F1  8  23 65 64 20 73 74 61 74 
   715)      9511.3  Rx     18DA03F1  8  24 65 20 63 6C 65 61 72 
   716)      9516.6  Rx     18DAF103  8  03 76 76 12 AA AA AA AA 
   717)      9530.5  Rx     18DA03F1  8  11 02 36 13 65 64 0D 0A 
   718)      9531.6  Rx     18DAF103  8  30 00 05 AA AA AA AA AA 
   719)      9532.4  Rx     18DA03F1  8  21 1B 5B 30 6D 0D 0A 00 
   720)      9535.3  Rx     18DA03F1  8  22 00 1F B5 01 22 03 21 
   721)      9538.4  Rx     18DA03F1  8  23 05 20 03 F0 7A F9 02 
   722)      9541.4  Rx     18DA03F1  8  24 A8 01 F0 5F F9 68 46 
   723)      9544.3  Rx     18DA03F1  8  25 01 F0 04 F8 2F 49 30 
   724)      9547.4  Rx     18DA03F1  8  26 48 01 F0 29 F8 00 20 
   725)      9550.4  Rx     18DA03F1  8  27 8D F8 0A 00 30 20 8D 
   726)      9553.4  Rx     18DA03F1  8  28 F8 09 00 00 20 8D F8 
   727)      9556.3  Rx     18DA03F1  8  29 08 00 05 20 8D F8 0C 
   728)      9559.4  Rx     18DA03F1  8  2A 00 02 A8 01 F0 A7 F8 
   729)      9562.4  Rx     18DA03F1  8  2B 00 20 01 90 01 98 20 
   730)      9565.4  Rx     18DA03F1  8  2C F0 1F 00 01 90 31 21 
   731)      9568.3  Rx     18DA03F1  8  2D 01 98 61 F3 10 20 01 
   732)      9571.4  Rx     18DA03F1  8  2E 90 01 98 20 F0 70 40 
   733)      9574.4  Rx     18DA03F1  8  2F 00 F1 80 50 01 90 01 
   734)      9577.4  Rx     18DA03F1  8  20 98 20 F0 70 60 00 F1 
   735)      9580.4  Rx     18DA03F1  8  21 80 70 01 90 01 98 20 
   736)      9583.3  Rx     18DA03F1  8  22 F4 70 00 00 F5 80 10 
   737)      9586.4  Rx     18DA03F1  8  23 01 90 00 20 8D F8 00 
   738)      9589.4  Rx     18DA03F1  8  24 00 01 98 20 F0 80 00 
   739)      9592.3  Rx     18DA03F1  8  25 01 90 68 46 00 F0 78 
   740)      9595.4  Rx     18DA03F1  8  26 FE 00 BF 20 20 00 F0 
   741)      9598.4  Rx     18DA03F1  8  27 E0 FD 01 28 FA D1 00 
   742)      9601.4  Rx     18DA03F1  8  28 22 11 46 04 20 05 F0 
   743)      9604.3  Rx     18DA03F1  8  29 CB FB 01 22 11 46 0B 
   744)      9607.4  Rx     18DA03F1  8  2A 20 05 F0 C6 FB 50 20 
   745)      9610.3  Rx     18DA03F1  8  2B 02 F0 FD FA 4F F4 40 
   746)      9613.3  Rx     18DA03F1  8  2C 40 03 F0 2F FC 05 F0 
   747)      9616.3  Rx     18DA03F1  8  2D 5D F8 05 20 00 F0 E1 
   748)      9619.3  Rx     18DA03F1  8  2E FF 01 20 02 F0 77 F8 
   749)      9622.3  Rx     18DA03F1  8  2F 00 20 02 F0 74 F8 01 
   750)      9625.3  Rx     18DA03F1  8  20 20 02 F0 3B F8 1F BD 
   751)      9628.3  Rx     18DA03F1  8  21 10 22 11 00 77 77 77 
   752)      9631.3  Rx     18DA03F1  8  22 07 2D E9 F0 41 05 46 
   753)      9634.3  Rx     18DA03F1  8  23 0C 46 00 BF 14 48 85 
   754)      9637.3  Rx     18DA03F1  8  24 42 00 D1 04 E0 40 F2 
   755)      9642.5  Rx     18DAF103  8  03 76 76 13 AA AA AA AA 
   756)      9656.4  Rx     18DA03F1  8  11 02 36 14 72 31 12 A0 
   757)      9657.6  Rx     18DAF103  8  30 00 05 AA AA AA AA AA 
   758)      9658.3  Rx     18DA03F1  8  21 01 F0 34 FF 00 BF 00 
   759)      9661.3  Rx     18DA03F1  8  22 BF 2C B1 1A 48 20 43 
   760)      9664.3  Rx     18DA03F1  8  23 19 49 88 42 00 D1 04 
   761)      9667.3  Rx     18DA03F1  8  24 E0 40 F2 73 31 0B A0 
   762)      9670.3  Rx     18DA03F1  8  25 01 F0 26 FF 00 BF 15 
   763)      9673.3  Rx     18DA03F1  8  26 48 04 40 C4 F3 07 47 
   764)      9676.3  Rx     18DA03F1  8  27 4F EA 14 68 05 F8 A5 
   765)      9679.3  Rx     18DA03F1  8  28 7F 6E 78 06 F0 EA 06 
   766)      9682.3  Rx     18DA03F1  8  29 46 EA 08 06 6E 70 A5 
   767)      9685.3  Rx     18DA03F1  8  2A 3D BD E8 F0 81 00 04 
   768)      9688.3  Rx     18DA03F1  8  2B 07 40 2E 2E 5C 64 72 
   769)      9691.3  Rx     18DA03F1  8  2C 69 76 65 72 73 5C 68 
   770)      9694.3  Rx     18DA03F1  8  2D 63 33 32 5F 6C 6C 5F 
   771)      9697.3  Rx     18DA03F1  8  2E 64 72 69 76 65 72 5C 
   772)      9700.3  Rx     18DA03F1  8  2F 73 72 63 5C 68 63 33 
   773)      9703.3  Rx     18DA03F1  8  20 32 5F 6C 6C 5F 63 61 
   774)      9706.3  Rx     18DA03F1  8  21 6E 2E 63 00 27 01 FF 
   775)      9709.3  Rx     18DA03F1  8  22 D5 00 00 FF 15 10 B5 
   776)      9712.3  Rx     18DA03F1  8  23 04 46 00 BF 08 48 84 
   777)      9715.3  Rx     18DA03F1  8  24 42 00 D1 04 E0 40 F2 
   778)      9718.3  Rx     18DA03F1  8  25 FA 21 06 A0 01 F0 EC 
   779)      9721.3  Rx     18DA03F1  8  26 FE 00 BF 94 F8 A0 00 
   780)      9724.3  Rx     18DA03F1  8  27 00 F0 7F 00 84 F8 A0 
   781)      9727.3  Rx     18DA03F1  8  28 00 10 BD 00 04 07 40 
   782)      9730.3  Rx     18DA03F1  8  29 2E 2E 5C 64 72 69 76 
   783)      9733.3  Rx     18DA03F1  8  2A 65 72 73 5C 68 63 33 
   784)      9736.3  Rx     18DA03F1  8  2B 32 5F 6C 6C 5F 64 72 
   785)      9739.3  Rx     18DA03F1  8  2C 69 76 65 72 5C 73 72 
   786)      9742.3  Rx     18DA03F1  8  2D 63 5C 68 63 33 32 5F 
   787)      9745.3  Rx     18DA03F1  8  2E 6C 6C 5F 63 61 6E 2E 
   788)      9748.3  Rx     18DA03F1  8  2F 63 00 2D E9 F0 47 04 
   789)      9751.3  Rx     18DA03F1  8  20 46 0E 46 15 46 4F F0 
   790)      9754.3  Rx     18DA03F1  8  21 00 09 00 BF 3D 48 84 
   791)      9757.3  Rx     18DA03F1  8  22 42 00 D1 04 E0 40 F2 
   792)      9760.3  Rx     18DA03F1  8  23 6A 21 3B A0 01 F0 BB 
   793)      9763.3  Rx     18DA03F1  8  24 FE 00 BF 00 BF 0E B1 
   794)      9768.5  Rx     18DAF103  8  03 76 76 14 AA AA AA AA 
   795)      9782.4  Rx     18DA03F1  8  11 02 36 15 01 2E 00 D1 
   796)      9783.6  Rx     18DAF103  8  30 00 05 AA AA AA AA AA 
   797)      9784.3  Rx     18DA03F1  8  21 04 E0 40 F2 6B 21 36 
   798)      9787.4  Rx     18DA03F1  8  22 A0 01 F0 B0 FE 00 BF 
   799)      9790.4  Rx     18DA03F1  8  23 00 2D 5E D0 00 BF 28 
   800)      9793.3  Rx     18DA03F1  8  24 79 C0 F3 40 10 00 B9 
   801)      9796.3  Rx     18DA03F1  8  25 04 E0 40 F2 6E 21 2F 
   802)      9799.4  Rx     18DA03F1  8  26 A0 01 F0 A2 FE 00 BF 
   803)      9802.3  Rx     18DA03F1  8  27 3E B9 94 F8 A1 00 00 
   804)      9805.3  Rx     18DA03F1  8  28 F0 10 00 B8 B1 6F F0 
   805)      9808.3  Rx     18DA03F1  8  29 05 09 14 E0 94 F8 A1 
   806)      9811.4  Rx     18DA03F1  8  2A 00 00 F0 06 00 10 B1 
   807)      9814.4  Rx     18DA03F1  8  2B 6F F0 05 09 0C E0 94 
   808)      9817.3  Rx     18DA03F1  8  2C F8 A4 70 94 F8 A2 80 
   809)      9820.4  Rx     18DA03F1  8  2D 07 F0 01 00 18 B9 08 
   810)      9823.4  Rx     18DA03F1  8  2E F0 03 00 03 28 01 D1 
   811)      9826.4  Rx     18DA03F1  8  2F 6F F0 09 09 B9 F1 00 
   812)      9829.3  Rx     18DA03F1  8  20 0F 33 D1 00 BF 28 79 
   813)      9832.4  Rx     18DA03F1  8  21 C0 F3 C0 10 30 B1 28 
   814)      9835.4  Rx     18DA03F1  8  22 68 60 F0 60 40 6F F0 
   815)      9838.4  Rx     18DA03F1  8  23 60 41 88 42 09 D0 28 
   816)      9841.4  Rx     18DA03F1  8  24 79 C0 F3 C0 10 30 B9 
   817)      9844.4  Rx     18DA03F1  8  25 40 F2 FF 71 28 68 08 
   818)      9847.3  Rx     18DA03F1  8  26 43 88 42 00 D1 04 E0 
   819)      9850.4  Rx     18DA03F1  8  27 40 F2 85 21 10 A0 01 
   820)      9853.4  Rx     18DA03F1  8  28 F0 64 FE 00 BF 04 F1 
   821)      9856.3  Rx     18DA03F1  8  29 A1 0A 1C 21 01 EB 4A 
   822)      9859.4  Rx     18DA03F1  8  2A 10 00 F1 84 40 06 60 
   823)      9862.4  Rx     18DA03F1  8  2B 29 46 20 46 00 F0 A7 
   824)      9865.3  Rx     18DA03F1  8  2C FC 01 2E 08 D1 94 F8 
   825)      9868.4  Rx     18DA03F1  8  2D A2 00 40 F0 40 00 84 
   826)      9871.4  Rx     18DA03F1  8  2E F8 A2 00 01 E0 6F F0 
   827)      9874.4  Rx     18DA03F1  8  2F 02 09 48 46 BD E8 F0 
   828)      9877.4  Rx     18DA03F1  8  20 87 00 00 00 04 07 40 
   829)      9880.4  Rx     18DA03F1  8  21 2E 2E 5C 64 72 69 76 
   830)      9883.4  Rx     18DA03F1  8  22 65 72 73 5C 68 63 33 
   831)      9886.3  Rx     18DA03F1  8  23 32 5F 6C 6C 5F 64 72 
   832)      9889.3  Rx     18DA03F1  8  24 69 76 65 72 5C 73 72 
   833)      9894.7  Rx     18DAF103  8  03 76 76 15 AA AA AA AA 
   834)      9908.5  Rx     18DA03F1  8  11 02 36 16 63 5C 68 63 
   835)      9909.7  Rx     18DAF103  8  30 00 05 AA AA AA AA AA 
   836)      9910.3  Rx     18DA03F1  8  21 33 32 5F 6C 6C 5F 63 
   837)      9913.3  Rx     18DA03F1  8  22 61 6E 2E 63 00 2D E9 
   838)      9916.3  Rx     18DA03F1  8  23 F0 47 06 46 0F 46 14 
   839)      9919.3  Rx     18DA03F1  8  24 46 4F F0 00 08 00 25 
   840)      9922.3  Rx     18DA03F1  8  25 6F F0 02 09 00 BF 34 
   841)      9925.3  Rx     18DA03F1  8  26 48 86 42 00 D1 04 E0 
   842)      9928.3  Rx     18DA03F1  8  27 4F F4 96 71 32 A0 01 
   843)      9931.3  Rx     18DA03F1  8  28 F0 1C FE 00 BF 00 2F 
   844)      9934.3  Rx     18DA03F1  8  29 59 D0 00 2C 57 D0 53 
   845)      9937.3  Rx     18DA03F1  8  2A E0 07 F0 01 00 00 28 
   846)      9940.3  Rx     18DA03F1  8  2B 4A D0 00 BF 05 EB 45 
   847)      9943.3  Rx     18DA03F1  8  2C 00 04 EB 80 00 80 68 
   848)      9946.3  Rx     18DA03F1  8  2D 78 B1 05 EB 45 00 04 
   849)      9949.3  Rx     18DA03F1  8  2E EB 80 00 80 68 B0 F1 
   850)      9952.3  Rx     18DA03F1  8  2F 80 4F 07 D0 05 EB 45 
   851)      9955.3  Rx     18DA03F1  8  20 00 04 EB 80 00 80 68 
   852)      9958.3  Rx     18DA03F1  8  21 B0 F1 C0 4F 00 D1 04 
   853)      9961.3  Rx     18DA03F1  8  22 E0 40 F2 31 11 1E A0 
   854)      9964.3  Rx     18DA03F1  8  23 01 F0 F5 FD 00 BF 00 
   855)      9967.3  Rx     18DA03F1  8  24 BF 05 EB 45 00 04 EB 
   856)      9970.3  Rx     18DA03F1  8  25 80 00 40 68 60 F0 60 
   857)      9973.3  Rx     18DA03F1  8  26 40 6F F0 60 41 88 42 
   858)      9976.3  Rx     18DA03F1  8  27 00 D1 04 E0 4F F4 99 
   859)      9979.3  Rx     18DA03F1  8  28 71 15 A0 01 F0 E2 FD 
   860)      9982.3  Rx     18DA03F1  8  29 00 BF 06 F8 B4 8F 05 
   861)      9985.3  Rx     18DA03F1  8  2A EB 45 00 54 F8 20 00 
   862)      9988.3  Rx     18DA03F1  8  2B 70 60 30 78 40 F0 20 
   863)      9991.3  Rx     18DA03F1  8  2C 00 30 70 05 EB 45 00 
   864)      9994.3  Rx     18DA03F1  8  2D 04 EB 80 00 40 68 05 
   865)      9997.3  Rx     18DA03F1  8  2E EB 45 01 04 EB 81 01 
   866)     10000.3  Rx     18DA03F1  8  2F 89 68 08 43 70 60 B4 
   867)     10003.3  Rx     18DA03F1  8  20 3E 68 1C C5 B2 7F 10 
   868)     10006.3  Rx     18DA03F1  8  21 08 F1 01 00 00 F0 FF 
   869)     10009.3  Rx     18DA03F1  8  22 08 00 2F A9 D1 B9 46 
   870)     10012.3  Rx     18DA03F1  8  23 48 46 BD E8 F0 87 00 
   871)     10015.3  Rx     18DA03F1  8  24 04 07 40 2E 2E 5C 64 
   872)     10020.6  Rx     18DAF103  8  03 76 76 16 AA AA AA AA 
   873)     10034.4  Rx     18DA03F1  8  11 02 36 17 72 69 76 65 
   874)     10035.6  Rx     18DAF103  8  30 00 05 AA AA AA AA AA 
   875)     10036.3  Rx     18DA03F1  8  21 72 73 5C 68 63 33 32 
   876)     10039.3  Rx     18DA03F1  8  22 5F 6C 6C 5F 64 72 69 
   877)     10042.3  Rx     18DA03F1  8  23 76 65 72 5C 73 72 63 
   878)     10045.3  Rx     18DA03F1  8  24 5C 68 63 33 32 5F 6C 
   879)     10048.3  Rx     18DA03F1  8  25 6C 5F 63 61 6E 2E 63 
   880)     10051.3  Rx     18DA03F1  8  26 00 10 B5 04 46 00 BF 
   881)     10054.3  Rx     18DA03F1  8  27 07 48 84 42 00 D1 04 
   882)     10057.3  Rx     18DA03F1  8  28 E0 40 F2 F5 31 05 A0 
   883)     10060.3  Rx     18DA03F1  8  29 01 F0 98 FD 00 BF 94 
   884)     10063.3  Rx     18DA03F1  8  2A F8 A3 00 00 F0 03 00 
   885)     10066.3  Rx     18DA03F1  8  2B 10 BD 00 04 07 40 2E 
   886)     10069.3  Rx     18DA03F1  8  2C 2E 5C 64 72 69 76 65 
   887)     10072.3  Rx     18DA03F1  8  2D 72 73 5C 68 63 33 32 
   888)     10075.3  Rx     18DA03F1  8  2E 5F 6C 6C 5F 64 72 69 
   889)     10078.3  Rx     18DA03F1  8  2F 76 65 72 5C 73 72 63 
   890)     10081.3  Rx     18DA03F1  8  20 5C 68 63 33 32 5F 6C 
   891)     10084.3  Rx     18DA03F1  8  21 6C 5F 63 61 6E 2E 63 
   892)     10087.3  Rx     18DA03F1  8  22 00 70 B5 04 46 0D 46 
   893)     10090.3  Rx     18DA03F1  8  23 6F F0 08 06 00 BF 0F 
   894)     10093.3  Rx     18DA03F1  8  24 48 84 42 00 D1 04 E0 
   895)     10096.3  Rx     18DA03F1  8  25 40 F2 D2 21 0D A0 01 
   896)     10099.3  Rx     18DA03F1  8  26 F0 6B FD 00 BF 15 B9 
   897)     10102.3  Rx     18DA03F1  8  27 6F F0 02 06 0F E0 94 
   898)     10105.3  Rx     18DA03F1  8  28 F8 A3 00 00 F0 03 00 
   899)     10108.3  Rx     18DA03F1  8  29 50 B1 29 46 20 46 00 
   900)     10111.3  Rx     18DA03F1  8  2A F0 45 FA 94 F8 A3 00 
   901)     10114.3  Rx     18DA03F1  8  2B 40 F0 10 00 84 F8 A3 
   902)     10117.3  Rx     18DA03F1  8  2C 00 00 26 30 46 70 BD 
   903)     10120.3  Rx     18DA03F1  8  2D 00 04 07 40 2E 2E 5C 
   904)     10123.3  Rx     18DA03F1  8  2E 64 72 69 76 65 72 73 
   905)     10126.3  Rx     18DA03F1  8  2F 5C 68 63 33 32 5F 6C 
   906)     10129.3  Rx     18DA03F1  8  20 6C 5F 64 72 69 76 65 
   907)     10132.3  Rx     18DA03F1  8  21 72 5C 73 72 63 5C 68 
   908)     10135.3  Rx     18DA03F1  8  22 63 33 32 5F 6C 6C 5F 
   909)     10138.3  Rx     18DA03F1  8  23 63 61 6E 2E 63 00 2D 
   910)     10141.3  Rx     18DA03F1  8  24 E9 F0 5F 05 46 0C 46 
   911)     10146.6  Rx     18DAF103  8  03 76 76 17 AA AA AA AA 
   912)     10160.4  Rx     18DA03F1  8  11 02 36 18 4F F0 00 0B 
   913)     10161.6  Rx     18DAF103  8  30 00 05 AA AA AA AA AA 
   914)     10162.3  Rx     18DA03F1  8  21 00 BF 20 48 85 42 00 
   915)     10165.3  Rx     18DA03F1  8  22 D1 04 E0 4F F4 4F 71 
   916)     10168.3  Rx     18DA03F1  8  23 1E A0 01 F0 2C FD 00 
   917)     10171.3  Rx     18DA03F1  8  24 BF 00 BF 2C B1 26 48 
   918)     10174.3  Rx     18DA03F1  8  25 20 43 25 49 88 42 00 
   919)     10177.3  Rx     18DA03F1  8  26 D1 04 E0 40 F2 3D 31 
   920)     10180.3  Rx     18DA03F1  8  27 17 A0 01 F0 1E FD 00 
   921)     10183.3  Rx     18DA03F1  8  28 BF 04 F0 07 06 04 F0 
   922)     10186.3  Rx     18DA03F1  8  29 20 07 C4 F3 07 28 C4 
   923)     10189.3  Rx     18DA03F1  8  2A F3 07 49 4F EA 14 6A 
   924)     10192.3  Rx     18DA03F1  8  2B 15 F8 A0 0F 06 40 E8 
   925)     10195.3  Rx     18DA03F1  8  2C 78 07 40 28 79 00 EA 
   926)     10198.3  Rx     18DA03F1  8  2D 08 08 68 79 00 EA 09 
   927)     10201.3  Rx     18DA03F1  8  2E 09 A8 79 A0 3D 00 EA 
   928)     10204.3  Rx     18DA03F1  8  2F 0A 0A 4E B9 47 B9 B8 
   929)     10207.3  Rx     18DA03F1  8  20 F1 00 0F 05 D1 B9 F1 
   930)     10210.3  Rx     18DA03F1  8  21 00 0F 02 D1 BA F1 00 
   931)     10213.3  Rx     18DA03F1  8  22 0F 01 D0 4F F0 01 0B 
   932)     10216.3  Rx     18DA03F1  8  23 58 46 BD E8 F0 9F 00 
   933)     10219.3  Rx     18DA03F1  8  24 04 07 40 2E 2E 5C 64 
   934)     10222.3  Rx     18DA03F1  8  25 72 69 76 65 72 73 5C 
   935)     10225.3  Rx     18DA03F1  8  26 68 63 33 32 5F 6C 6C 
   936)     10228.3  Rx     18DA03F1  8  27 5F 64 72 69 76 65 72 
   937)     10231.3  Rx     18DA03F1  8  28 5C 73 72 63 5C 68 63 
   938)     10234.3  Rx     18DA03F1  8  29 33 32 5F 6C 6C 5F 63 
   939)     10237.3  Rx     18DA03F1  8  2A 61 6E 2E 63 00 27 01 
   940)     10240.3  Rx     18DA03F1  8  2B FF D5 2D E9 F0 47 04 
   941)     10243.3  Rx     18DA03F1  8  2C 46 00 BF 10 48 84 42 
   942)     10246.3  Rx     18DA03F1  8  2D 00 D1 04 E0 40 F2 A7 
   943)     10249.3  Rx     18DA03F1  8  2E 31 0E A0 01 F0 CD FC 
   944)     10252.3  Rx     18DA03F1  8  2F 00 BF 14 F8 A0 5F E6 
   945)     10255.3  Rx     18DA03F1  8  20 78 06 F0 20 06 94 F8 
   946)     10258.3  Rx     18DA03F1  8  21 04 80 67 79 94 F8 06 
   947)     10261.3  Rx     18DA03F1  8  22 90 A0 3C 46 EA 08 20 
   948)     10264.3  Rx     18DA03F1  8  23 40 EA 07 40 40 EA 09 
   949)     10267.3  Rx     18DA03F1  8  24 60 05 43 0E 48 05 40 
   950)     10272.6  Rx     18DAF103  8  03 76 76 18 AA AA AA AA 
   951)     10286.4  Rx     18DA03F1  8  11 02 36 19 28 46 BD E8 
   952)     10287.6  Rx     18DAF103  8  30 00 05 AA AA AA AA AA 
   953)     10288.3  Rx     18DA03F1  8  21 F0 87 00 00 00 04 07 
   954)     10291.3  Rx     18DA03F1  8  22 40 2E 2E 5C 64 72 69 
   955)     10294.3  Rx     18DA03F1  8  23 76 65 72 73 5C 68 63 
   956)     10297.3  Rx     18DA03F1  8  24 33 32 5F 6C 6C 5F 64 
   957)     10300.3  Rx     18DA03F1  8  25 72 69 76 65 72 5C 73 
   958)     10303.3  Rx     18DA03F1  8  26 72 63 5C 68 63 33 32 
   959)     10306.3  Rx     18DA03F1  8  27 5F 6C 6C 5F 63 61 6E 
   960)     10309.3  Rx     18DA03F1  8  28 2E 63 00 27 01 FF D5 
   961)     10312.3  Rx     18DA03F1  8  29 70 B5 05 46 0C 46 6F 
   962)     10315.3  Rx     18DA03F1  8  2A F0 02 06 00 2C 4F D0 
   963)     10318.3  Rx     18DA03F1  8  2B 21 46 28 46 00 F0 4F 
   964)     10321.3  Rx     18DA03F1  8  2C F8 15 F8 A0 0F 40 F0 
   965)     10324.3  Rx     18DA03F1  8  2D 80 00 28 70 60 68 80 
   966)     10327.3  Rx     18DA03F1  8  2E 1E A1 68 49 1E 40 EA 
   967)     10330.3  Rx     18DA03F1  8  2F 01 21 A0 89 40 1E 41 
   968)     10333.3  Rx     18DA03F1  8  20 EA 00 41 20 78 40 1E 
   969)     10336.3  Rx     18DA03F1  8  21 41 EA 00 60 A8 60 A8 
   970)     10339.3  Rx     18DA03F1  8  22 78 00 F0 DF 00 61 7E 
   971)     10342.3  Rx     18DA03F1  8  23 01 F0 20 01 08 43 A8 
   972)     10345.3  Rx     18DA03F1  8  24 70 A0 3D A1 8A 28 46 
   973)     10348.3  Rx     18DA03F1  8  25 22 69 FF F7 3D FE 95 
   974)     10351.4  Rx     18DA03F1  8  26 F8 A0 00 00 F0 7F 00 
   975)     10354.3  Rx     18DA03F1  8  27 85 F8 A0 00 A1 7D 28 
   976)     10357.3  Rx     18DA03F1  8  28 46 00 F0 7B F9 E0 7D 
   977)     10360.3  Rx     18DA03F1  8  29 21 7E 08 43 00 F0 18 
   978)     10363.3  Rx     18DA03F1  8  2A 00 15 F8 A0 1F 01 F0 
   979)     10366.3  Rx     18DA03F1  8  2B E7 01 08 43 28 70 E0 
   980)     10369.3  Rx     18DA03F1  8  2C 7E A1 7E 40 EA 01 10 
   981)     10372.3  Rx     18DA03F1  8  2D E8 71 20 7F 61 7F 08 
   982)     10375.3  Rx     18DA03F1  8  2E 43 A1 7F 08 43 E8 70 
   983)     10378.3  Rx     18DA03F1  8  2F 20 7D A8 75 A0 3D 20 
   984)     10381.3  Rx     18DA03F1  8  20 6A 18 B1 28 46 21 6A 
   985)     10384.3  Rx     18DA03F1  8  21 00 F0 DE F9 00 26 30 
   986)     10387.3  Rx     18DA03F1  8  22 46 70 BD 00 00 70 B5 
   987)     10390.3  Rx     18DA03F1  8  23 05 46 0C 46 00 BF 56 
   988)     10393.3  Rx     18DA03F1  8  24 48 85 42 00 D1 03 E0 
   989)     10398.6  Rx     18DAF103  8  03 76 76 19 AA AA AA AA 
   990)     10412.4  Rx     18DA03F1  8  11 02 36 1A D5 21 55 A0 
   991)     10413.7  Rx     18DAF103  8  30 00 05 AA AA AA AA AA 
   992)     10414.3  Rx     18DA03F1  8  21 01 F0 34 FC 00 BF 00 
   993)     10417.3  Rx     18DA03F1  8  22 BF A0 7D 04 28 00 D8 
   994)     10420.3  Rx     18DA03F1  8  23 03 E0 D6 21 50 A0 01 
   995)     10423.3  Rx     18DA03F1  8  24 F0 2A FC 00 BF 00 BF 
   996)     10426.3  Rx     18DA03F1  8  25 E0 7D 10 B1 E0 7D 10 
   997)     10429.3  Rx     18DA03F1  8  26 28 00 D1 03 E0 D7 21 
   998)     10432.3  Rx     18DA03F1  8  27 4A A0 01 F0 1E FC 00 
   999)     10435.3  Rx     18DA03F1  8  28 BF 00 BF 20 7E 10 B1 
  1000)     10438.3  Rx     18DA03F1  8  29 20 7E 08 28 00 D1 03 
  1001)     10441.3  Rx     18DA03F1  8  2A E0 D8 21 44 A0 01 F0 
  1002)     10444.3  Rx     18DA03F1  8  2B 12 FC 00 BF 00 BF 60 
  1003)     10447.3  Rx     18DA03F1  8  2C 7E 10 B1 60 7E 20 28 
  1004)     10450.3  Rx     18DA03F1  8  2D 00 D1 03 E0 D9 21 3E 
  1005)     10453.3  Rx     18DA03F1  8  2E A0 01 F0 06 FC 00 BF 
  1006)     10456.3  Rx     18DA03F1  8  2F 00 BF A0 7E 18 B1 A0 
  1007)     10459.3  Rx     18DA03F1  8  20 7E 0A 28 00 D8 03 E0 
  1008)     10462.3  Rx     18DA03F1  8  21 DA 21 38 A0 01 F0 FA 
  1009)     10465.3  Rx     18DA03F1  8  22 FB 00 BF 00 BF E0 7E 
  1010)     10468.3  Rx     18DA03F1  8  23 10 28 00 D2 03 E0 DB 
  1011)     10471.3  Rx     18DA03F1  8  24 21 33 A0 01 F0 F0 FB 
  1012)     10474.3  Rx     18DA03F1  8  25 00 BF 00 BF A0 8A 28 
  1013)     10477.3  Rx     18DA03F1  8  26 B1 A0 8A 40 F0 FF 00 
  1014)     10480.3  Rx     18DA03F1  8  27 FF 28 00 D1 03 E0 DC 
  1015)     10483.3  Rx     18DA03F1  8  28 21 2C A0 01 F0 E2 FB 
  1016)     10486.3  Rx     18DA03F1  8  29 00 BF 00 BF 20 7F 10 
  1017)     10489.3  Rx     18DA03F1  8  2A B1 20 7F 08 28 00 D1 
  1018)     10492.3  Rx     18DA03F1  8  2B 03 E0 DD 21 26 A0 01 
  1019)     10495.3  Rx     18DA03F1  8  2C F0 D6 FB 00 BF 00 BF 
  1020)     10498.3  Rx     18DA03F1  8  2D 60 7F 10 B1 60 7F 40 
  1021)     10501.3  Rx     18DA03F1  8  2E 28 00 D1 03 E0 DE 21 
  1022)     10504.3  Rx     18DA03F1  8  2F 20 A0 01 F0 CA FB 00 
  1023)     10507.3  Rx     18DA03F1  8  20 BF 00 BF A0 7F 10 B1 
  1024)     10510.3  Rx     18DA03F1  8  21 A0 7F 80 28 00 D1 03 
  1025)     10513.3  Rx     18DA03F1  8  22 E0 DF 21 1A A0 01 F0 
  1026)     10516.3  Rx     18DA03F1  8  23 BE FB 00 BF 00 BF 20 
  1027)     10519.3  Rx     18DA03F1  8  24 68 20 B1 20 68 B0 F5 
  1028)     10524.6  Rx     18DAF103  8  03 76 76 1A AA AA AA AA 
  1029)     10538.4  Rx     18DA03F1  8  11 02 36 1B 80 7F 00 D8 
  1030)     10539.6  Rx     18DAF103  8  30 00 05 AA AA AA AA AA 
  1031)     10540.3  Rx     18DA03F1  8  21 03 E0 E1 21 13 A0 01 
  1032)     10543.3  Rx     18DA03F1  8  22 F0 B1 FB 00 BF 00 BF 
  1033)     10546.3  Rx     18DA03F1  8  23 60 68 02 28 16 D3 60 
  1034)     10549.3  Rx     18DA03F1  8  24 68 41 28 13 D8 A0 68 
  1035)     10552.3  Rx     18DA03F1  8  25 88 B1 A0 68 08 28 0E 
  1036)     10555.3  Rx     18DA03F1  8  26 D8 E0 68 60 B1 E0 68 
  1037)     10558.3  Rx     18DA03F1  8  27 08 28 09 D8 D4 E9 01 
  1038)     10561.3  Rx     18DA03F1  8  28 10 40 1C 81 42 04 D3 
  1039)     10564.3  Rx     18DA03F1  8  29 D4 E9 02 01 88 42 00 
  1040)     10567.3  Rx     18DA03F1  8  2A D3 03 E0 E2 21 03 A0 
  1041)     10570.3  Rx     18DA03F1  8  2B 01 F0 91 FB 00 BF 70 
  1042)     10573.3  Rx     18DA03F1  8  2C BD 00 00 00 04 07 40 
  1043)     10576.3  Rx     18DA03F1  8  2D 2E 2E 5C 64 72 69 76 
  1044)     10579.3  Rx     18DA03F1  8  2E 65 72 73 5C 68 63 33 
  1045)     10582.3  Rx     18DA03F1  8  2F 32 5F 6C 6C 5F 64 72 
  1046)     10585.3  Rx     18DA03F1  8  20 69 76 65 72 5C 73 72 
  1047)     10588.3  Rx     18DA03F1  8  21 63 5C 68 63 33 32 5F 
  1048)     10591.3  Rx     18DA03F1  8  22 6C 6C 5F 63 61 6E 2E 
  1049)     10594.3  Rx     18DA03F1  8  23 63 00 2D E9 F0 41 04 
  1050)     10597.3  Rx     18DA03F1  8  24 46 0D 46 16 46 00 BF 
  1051)     10600.3  Rx     18DA03F1  8  25 1F 48 84 42 00 D1 04 
  1052)     10603.3  Rx     18DA03F1  8  26 E0 40 F2 43 21 1D A0 
  1053)     10606.3  Rx     18DA03F1  8  27 01 F0 67 FB 00 BF 00 
  1054)     10609.3  Rx     18DA03F1  8  28 BF 3D B1 42 F6 FE 20 
  1055)     10612.3  Rx     18DA03F1  8  29 28 43 42 F6 FE 21 88 
  1056)     10615.3  Rx     18DA03F1  8  2A 42 00 D1 04 E0 4F F4 
  1057)     10618.3  Rx     18DA03F1  8  2B 11 71 15 A0 01 F0 57 
  1058)     10621.3  Rx     18DA03F1  8  2C FB 00 BF 00 BF 0E B1 
  1059)     10624.3  Rx     18DA03F1  8  2D 01 2E 00 D1 04 E0 40 
  1060)     10627.3  Rx     18DA03F1  8  2E F2 45 21 10 A0 01 F0 
  1061)     10630.3  Rx     18DA03F1  8  2F 4C FB 00 BF EF B2 C5 
  1062)     10633.3  Rx     18DA03F1  8  20 F3 07 28 01 2E 09 D1 
  1063)     10636.3  Rx     18DA03F1  8  21 14 F8 A4 0F 38 43 20 
  1064)     10639.3  Rx     18DA03F1  8  22 70 A0 78 40 EA 08 00 
  1065)     10642.3  Rx     18DA03F1  8  23 A0 70 A4 3C 08 E0 14 
  1066)     10645.3  Rx     18DA03F1  8  24 F8 A4 0F B8 43 20 70 
  1067)     10650.6  Rx     18DAF103  8  03 76 76 1B AA AA AA AA 
  1068)     10664.4  Rx     18DA03F1  8  11 02 36 1C A0 78 20 EA 
  1069)     10665.7  Rx     18DAF103  8  30 00 05 AA AA AA AA AA 
  1070)     10666.3  Rx     18DA03F1  8  21 08 00 A0 70 A4 3C BD 
  1071)     10669.3  Rx     18DA03F1  8  22 E8 F0 81 00 00 00 04 
  1072)     10672.3  Rx     18DA03F1  8  23 07 40 2E 2E 5C 64 72 
  1073)     10675.3  Rx     18DA03F1  8  24 69 76 65 72 73 5C 68 
  1074)     10678.3  Rx     18DA03F1  8  25 63 33 32 5F 6C 6C 5F 
  1075)     10681.3  Rx     18DA03F1  8  26 64 72 69 76 65 72 5C 
  1076)     10684.3  Rx     18DA03F1  8  27 73 72 63 5C 68 63 33 
  1077)     10687.3  Rx     18DA03F1  8  28 32 5F 6C 6C 5F 63 61 
  1078)     10690.3  Rx     18DA03F1  8  29 6E 2E 63 00 F0 B5 02 
  1079)     10693.3  Rx     18DA03F1  8  2A 46 01 F1 08 05 14 46 
  1080)     10696.3  Rx     18DA03F1  8  2B 26 68 0E 60 66 68 4E 
  1081)     10699.3  Rx     18DA03F1  8  2C 60 0E 79 C6 F3 C0 16 
  1082)     10702.3  Rx     18DA03F1  8  2D 26 B9 0E 88 C6 F3 0A 
  1083)     10705.3  Rx     18DA03F1  8  2E 06 0E 60 03 E0 0E 68 
  1084)     10708.3  Rx     18DA03F1  8  2F 26 F0 60 46 0E 60 0E 
  1085)     10711.3  Rx     18DA03F1  8  20 79 06 F0 0F 06 0A 4F 
  1086)     10714.3  Rx     18DA03F1  8  21 BB 5D 0E 79 C6 F3 40 
  1087)     10717.3  Rx     18DA03F1  8  22 16 16 B9 02 2B 00 D9 
  1088)     10720.3  Rx     18DA03F1  8  23 02 23 00 20 06 E0 86 
  1089)     10723.3  Rx     18DA03F1  8  24 1C 54 F8 26 60 45 F8 
  1090)     10726.3  Rx     18DA03F1  8  25 20 60 46 1C F0 B2 98 
  1091)     10729.3  Rx     18DA03F1  8  26 42 F6 DB F0 BD 0C BD 
  1092)     10732.3  Rx     18DA03F1  8  27 02 00 30 B5 00 22 00 
  1093)     10735.3  Rx     18DA03F1  8  28 23 05 29 0D D2 DF E8 
  1094)     10738.4  Rx     18DA03F1  8  29 01 F0 0D 03 05 07 09 
  1095)     10741.3  Rx     18DA03F1  8  2A 00 40 23 08 E0 20 22 
  1096)     10744.3  Rx     18DA03F1  8  2B 06 E0 40 22 04 E0 40 
  1097)     10747.4  Rx     18DA03F1  8  2C 23 40 22 01 E0 00 BF 
  1098)     10750.3  Rx     18DA03F1  8  2D 00 BF 00 BF 10 F8 A0 
  1099)     10753.3  Rx     18DA03F1  8  2E 4F 04 F0 9F 04 02 F0 
  1100)     10756.3  Rx     18DA03F1  8  2F 60 05 2C 43 04 70 44 
  1101)     10759.3  Rx     18DA03F1  8  20 78 04 F0 BF 04 03 F0 
  1102)     10762.3  Rx     18DA03F1  8  21 40 05 2C 43 44 70 A0 
  1103)     10765.3  Rx     18DA03F1  8  22 38 30 BD 00 00 70 B5 
  1104)     10768.4  Rx     18DA03F1  8  23 04 46 0D 46 00 BF 0E 
  1105)     10771.3  Rx     18DA03F1  8  24 48 84 42 00 D1 04 E0 
  1106)     10776.6  Rx     18DAF103  8  03 76 76 1C AA AA AA AA 
  1107)     10790.4  Rx     18DA03F1  8  11 02 36 1D 40 F2 A9 21 
  1108)     10791.6  Rx     18DAF103  8  30 00 05 AA AA AA AA AA 
  1109)     10792.4  Rx     18DA03F1  8  21 0C A0 01 F0 B3 FA 00 
  1110)     10795.3  Rx     18DA03F1  8  22 BF 00 BF 25 B1 45 F0 
  1111)     10798.3  Rx     18DA03F1  8  23 16 00 16 28 00 D1 04 
  1112)     10801.3  Rx     18DA03F1  8  24 E0 40 F2 AA 21 06 A0 
  1113)     10804.3  Rx     18DA03F1  8  25 01 F0 A6 FA 00 BF 94 
  1114)     10807.3  Rx     18DA03F1  8  26 F8 A1 00 28 43 84 F8 
  1115)     10810.3  Rx     18DA03F1  8  27 A1 00 70 BD 00 00 00 
  1116)     10813.3  Rx     18DA03F1  8  28 04 07 40 2E 2E 5C 64 
  1117)     10816.3  Rx     18DA03F1  8  29 72 69 76 65 72 73 5C 
  1118)     10819.3  Rx     18DA03F1  8  2A 68 63 33 32 5F 6C 6C 
  1119)     10822.3  Rx     18DA03F1  8  2B 5F 64 72 69 76 65 72 
  1120)     10825.3  Rx     18DA03F1  8  2C 5C 73 72 63 5C 68 63 
  1121)     10828.3  Rx     18DA03F1  8  2D 33 32 5F 6C 6C 5F 63 
  1122)     10831.3  Rx     18DA03F1  8  2E 61 6E 2E 63 00 01 46 
  1123)     10834.4  Rx     18DA03F1  8  2F 6F F0 02 00 D1 B1 04 
  1124)     10837.3  Rx     18DA03F1  8  20 22 0A 60 10 22 4A 60 
  1125)     10840.3  Rx     18DA03F1  8  21 04 22 8A 60 02 22 CA 
  1126)     10843.3  Rx     18DA03F1  8  22 60 00 22 0A 61 8A 82 
  1127)     10846.3  Rx     18DA03F1  8  23 8A 75 CA 75 0A 76 4A 
  1128)     10849.3  Rx     18DA03F1  8  24 76 0A 22 8A 76 07 22 
  1129)     10852.3  Rx     18DA03F1  8  25 CA 76 00 22 0A 77 40 
  1130)     10855.3  Rx     18DA03F1  8  26 22 4A 77 00 22 8A 77 
  1131)     10858.3  Rx     18DA03F1  8  27 0A 62 00 20 70 47 2D 
  1132)     10861.3  Rx     18DA03F1  8  28 E9 F0 41 05 46 0C 46 
  1133)     10864.4  Rx     18DA03F1  8  29 6F F0 02 07 00 BF 4B 
  1134)     10867.3  Rx     18DA03F1  8  2A 48 85 42 00 D1 04 E0 
  1135)     10870.3  Rx     18DA03F1  8  2B 40 F2 5F 41 49 A0 01 
  1136)     10873.4  Rx     18DA03F1  8  2C F0 56 FA 00 BF 00 2C 
  1137)     10876.3  Rx     18DA03F1  8  2D 7D D0 00 BF 60 7A 10 
  1138)     10879.3  Rx     18DA03F1  8  2E B1 60 7A 10 28 00 D1 
  1139)     10882.3  Rx     18DA03F1  8  2F 04 E0 40 F2 62 41 41 
  1140)     10885.3  Rx     18DA03F1  8  20 A0 01 F0 47 FA 00 BF 
  1141)     10888.3  Rx     18DA03F1  8  21 00 BF 20 7A 40 B1 20 
  1142)     10891.3  Rx     18DA03F1  8  22 7A 02 28 05 D0 20 7A 
  1143)     10894.4  Rx     18DA03F1  8  23 04 28 02 D0 20 7A 06 
  1144)     10897.3  Rx     18DA03F1  8  24 28 00 D1 04 E0 40 F2 
  1145)     10902.6  Rx     18DAF103  8  03 76 76 1D AA AA AA AA 
  1146)     10916.4  Rx     18DA03F1  8  11 02 36 1E 63 41 38 A0 
  1147)     10917.7  Rx     18DAF103  8  30 00 05 AA AA AA AA AA 
  1148)     10918.3  Rx     18DA03F1  8  21 01 F0 34 FA 00 BF 00 
  1149)     10921.3  Rx     18DA03F1  8  22 BF 60 68 01 28 06 D1 
  1150)     10924.3  Rx     18DA03F1  8  23 20 68 60 F0 60 40 6F 
  1151)     10927.3  Rx     18DA03F1  8  24 F0 60 41 88 42 07 D0 
  1152)     10930.3  Rx     18DA03F1  8  25 60 68 30 B9 40 F2 FF 
  1153)     10933.3  Rx     18DA03F1  8  26 71 20 68 08 43 88 42 
  1154)     10936.3  Rx     18DA03F1  8  27 00 D1 04 E0 40 F2 64 
  1155)     10939.3  Rx     18DA03F1  8  28 41 2B A0 01 F0 1A FA 
  1156)     10942.3  Rx     18DA03F1  8  29 00 BF 00 BF 60 89 78 
  1157)     10945.3  Rx     18DA03F1  8  2A B1 60 89 B0 F5 80 7F 
  1158)     10948.3  Rx     18DA03F1  8  2B 0B D0 60 89 B0 F5 00 
  1159)     10951.3  Rx     18DA03F1  8  2C 7F 07 D0 60 89 B0 F5 
  1160)     10954.3  Rx     18DA03F1  8  2D 40 7F 03 D0 60 89 B0 
  1161)     10957.3  Rx     18DA03F1  8  2E F5 80 6F 00 D1 04 E0 
  1162)     10960.3  Rx     18DA03F1  8  2F 40 F2 65 41 1E A0 01 
  1163)     10963.3  Rx     18DA03F1  8  20 F0 00 FA 00 BF 00 BF 
  1164)     10966.3  Rx     18DA03F1  8  21 A0 89 18 B1 A0 89 10 
  1165)     10969.3  Rx     18DA03F1  8  22 28 00 D8 04 E0 40 F2 
  1166)     10972.3  Rx     18DA03F1  8  23 66 41 17 A0 01 F0 F3 
  1167)     10975.3  Rx     18DA03F1  8  24 F9 00 BF 20 68 20 F0 
  1168)     10978.3  Rx     18DA03F1  8  25 00 46 15 F8 A2 0F 00 
  1169)     10981.3  Rx     18DA03F1  8  26 F0 EF 00 61 7A 01 F0 
  1170)     10984.3  Rx     18DA03F1  8  27 10 01 08 43 28 70 61 
  1171)     10987.3  Rx     18DA03F1  8  28 89 20 7B 40 1E 41 EA 
  1172)     10990.3  Rx     18DA03F1  8  29 00 30 68 84 20 79 46 
  1173)     10993.3  Rx     18DA03F1  8  2A EA C0 70 C5 F8 1E 00 
  1174)     10996.3  Rx     18DA03F1  8  2B E0 89 A8 84 20 8A E8 
  1175)     10999.3  Rx     18DA03F1  8  2C 84 68 7F 00 E0 08 E0 
  1176)     11002.3  Rx     18DA03F1  8  2D 00 F0 F9 00 21 7A 01 
  1177)     11005.3  Rx     18DA03F1  8  2E F0 06 01 08 43 68 77 
  1178)     11008.3  Rx     18DA03F1  8  2F A2 3D 00 27 38 46 BD 
  1179)     11011.3  Rx     18DA03F1  8  20 E8 F0 81 00 04 07 40 
  1180)     11014.3  Rx     18DA03F1  8  21 2E 2E 5C 64 72 69 76 
  1181)     11017.3  Rx     18DA03F1  8  22 65 72 73 5C 68 63 33 
  1182)     11020.3  Rx     18DA03F1  8  23 32 5F 6C 6C 5F 64 72 
  1183)     11023.3  Rx     18DA03F1  8  24 69 76 65 72 5C 73 72 
  1184)     11028.6  Rx     18DAF103  8  03 76 76 1E AA AA AA AA 
  1185)     11042.4  Rx     18DA03F1  8  11 02 36 1F 63 5C 68 63 
  1186)     11043.6  Rx     18DAF103  8  30 00 05 AA AA AA AA AA 
  1187)     11044.3  Rx     18DA03F1  8  21 33 32 5F 6C 6C 5F 63 
  1188)     11047.3  Rx     18DA03F1  8  22 61 6E 2E 63 00 F0 B5 
  1189)     11050.3  Rx     18DA03F1  8  23 03 46 01 F1 08 05 03 
  1190)     11053.3  Rx     18DA03F1  8  24 F1 50 02 0E 68 16 60 
  1191)     11056.3  Rx     18DA03F1  8  25 4E 68 56 60 0E 79 06 
  1192)     11059.3  Rx     18DA03F1  8  26 F0 0F 06 0C 4F BC 5D 
  1193)     11062.3  Rx     18DA03F1  8  27 0E 79 C6 F3 40 16 16 
  1194)     11065.3  Rx     18DA03F1  8  28 B9 02 2C 00 D9 02 24 
  1195)     11068.3  Rx     18DA03F1  8  29 0E 79 C6 F3 80 16 56 
  1196)     11071.3  Rx     18DA03F1  8  2A B9 00 20 06 E0 55 F8 
  1197)     11074.3  Rx     18DA03F1  8  2B 20 70 86 1C 42 F8 26 
  1198)     11077.3  Rx     18DA03F1  8  2C 70 46 1C F0 B2 A0 42 
  1199)     11080.3  Rx     18DA03F1  8  2D F6 DB F0 BD 0C BD 02 
  1200)     11083.3  Rx     18DA03F1  8  2E 00 10 B5 04 46 00 BF 
  1201)     11086.3  Rx     18DA03F1  8  2F 24 B1 44 F0 69 00 69 
  1202)     11089.3  Rx     18DA03F1  8  20 28 00 D1 04 E0 40 F2 
  1203)     11092.3  Rx     18DA03F1  8  21 8B 51 06 A0 01 F0 7A 
  1204)     11095.3  Rx     18DA03F1  8  22 F9 00 BF 0F 48 00 78 
  1205)     11098.3  Rx     18DA03F1  8  23 20 40 08 B1 01 20 10 
  1206)     11101.3  Rx     18DA03F1  8  24 BD 00 20 FC E7 00 00 
  1207)     11104.3  Rx     18DA03F1  8  25 2E 2E 5C 64 72 69 76 
  1208)     11107.3  Rx     18DA03F1  8  26 65 72 73 5C 68 63 33 
  1209)     11110.3  Rx     18DA03F1  8  27 32 5F 6C 6C 5F 64 72 
  1210)     11113.3  Rx     18DA03F1  8  28 69 76 65 72 5C 73 72 
  1211)     11116.3  Rx     18DA03F1  8  29 63 5C 68 63 33 32 5F 
  1212)     11119.3  Rx     18DA03F1  8  2A 6C 6C 5F 63 6C 6B 2E 
  1213)     11122.3  Rx     18DA03F1  8  2B 63 00 3C 40 05 40 70 
  1214)     11125.3  Rx     18DA03F1  8  2C B5 04 46 00 25 00 BF 
  1215)     11128.3  Rx     18DA03F1  8  2D 0C B1 01 2C 00 D1 04 
  1216)     11131.3  Rx     18DA03F1  8  2E E0 40 F2 E5 41 1F A0 
  1217)     11134.4  Rx     18DA03F1  8  2F 01 F0 4B F9 00 BF 00 
  1218)     11137.3  Rx     18DA03F1  8  20 BF 28 48 00 88 00 F0 
  1219)     11140.3  Rx     18DA03F1  8  21 01 00 00 B1 04 E0 40 
  1220)     11143.3  Rx     18DA03F1  8  22 F2 E6 41 19 A0 01 F0 
  1221)     11146.3  Rx     18DA03F1  8  23 3E F9 00 BF 64 B9 22 
  1222)     11149.3  Rx     18DA03F1  8  24 48 00 78 00 F0 07 00 
  1223)     11154.5  Rx     18DAF103  8  03 76 76 1F AA AA AA AA 
  1224)     11168.4  Rx     18DA03F1  8  11 02 36 20 05 28 01 D1 
  1225)     11169.6  Rx     18DAF103  8  30 00 05 AA AA AA AA AA 
  1226)     11170.3  Rx     18DA03F1  8  21 C5 43 22 E0 01 20 1E 
  1227)     11173.3  Rx     18DA03F1  8  22 49 09 1D 08 70 1D E0 
  1228)     11176.3  Rx     18DA03F1  8  23 1C 48 DA 30 00 68 C0 
  1229)     11179.3  Rx     18DA03F1  8  24 F3 C0 10 30 B9 4F F4 
  1230)     11182.3  Rx     18DA03F1  8  25 80 51 08 20 00 F0 BD 
  1231)     11185.3  Rx     18DA03F1  8  26 F9 05 46 05 E0 4F F4 
  1232)     11188.3  Rx     18DA03F1  8  27 80 51 01 20 00 F0 B6 
  1233)     11191.3  Rx     18DA03F1  8  28 F9 05 46 4D B9 00 20 
  1234)     11194.3  Rx     18DA03F1  8  29 11 49 09 1D 08 70 4F 
  1235)     11197.3  Rx     18DA03F1  8  2A F4 80 51 20 20 00 F0 
  1236)     11200.3  Rx     18DA03F1  8  2B AB F9 05 46 28 46 70 
  1237)     11203.3  Rx     18DA03F1  8  2C BD 00 00 2E 2E 5C 64 
  1238)     11206.3  Rx     18DA03F1  8  2D 72 69 76 65 72 73 5C 
  1239)     11209.3  Rx     18DA03F1  8  2E 68 63 33 32 5F 6C 6C 
  1240)     11212.3  Rx     18DA03F1  8  2F 5F 64 72 69 76 65 72 
  1241)     11215.4  Rx     18DA03F1  8  20 5C 73 72 63 5C 68 63 
  1242)     11218.3  Rx     18DA03F1  8  21 33 32 5F 6C 6C 5F 63 
  1243)     11221.3  Rx     18DA03F1  8  22 6C 6B 2E 63 00 FE 43 
  1244)     11224.4  Rx     18DA03F1  8  23 05 40 26 40 05 40 2D 
  1245)     11227.3  Rx     18DA03F1  8  24 E9 F0 41 04 46 14 B9 
  1246)     11230.3  Rx     18DA03F1  8  25 6F F0 02 06 1F E1 00 
  1247)     11233.5  Rx     18DA03F1  8  26 BF 20 79 C0 F3 C0 10 
  1248)     11236.3  Rx     18DA03F1  8  27 18 B1 20 79 C0 F3 C0 
  1249)     11239.3  Rx     18DA03F1  8  28 10 00 B1 04 E0 4F F4 
  1250)     11242.4  Rx     18DA03F1  8  29 97 61 8B A0 01 F0 DE 
  1251)     11245.4  Rx     18DA03F1  8  2A F8 00 BF 00 BF 20 79 
  1252)     11248.3  Rx     18DA03F1  8  2B 00 F0 1F 00 40 1C 18 
  1253)     11251.3  Rx     18DA03F1  8  2C 28 05 D8 20 79 00 F0 
  1254)     11254.4  Rx     18DA03F1  8  2D 1F 00 40 1C 00 B1 04 
  1255)     11257.3  Rx     18DA03F1  8  2E E0 40 F2 B9 41 81 A0 
  1256)     11260.4  Rx     18DA03F1  8  2F 01 F0 CB F8 00 BF 00 
  1257)     11263.4  Rx     18DA03F1  8  20 BF 60 68 C0 F3 08 20 
  1258)     11266.3  Rx     18DA03F1  8  21 40 1C B0 F5 F0 7F 06 
  1259)     11269.3  Rx     18DA03F1  8  22 D8 60 68 C0 F3 08 20 
  1260)     11272.4  Rx     18DA03F1  8  23 40 1C 14 28 00 D3 04 
  1261)     11275.3  Rx     18DA03F1  8  24 E0 40 F2 BA 41 77 A0 
  1262)     11280.7  Rx     18DAF103  8  03 76 76 20 AA AA AA AA 
  1263)     11294.5  Rx     18DA03F1  8  11 02 36 21 01 F0 B6 F8 
  1264)     11295.7  Rx     18DAF103  8  30 00 05 AA AA AA AA AA 
  1265)     11296.4  Rx     18DA03F1  8  21 00 BF 00 BF 01 21 60 
  1266)     11299.3  Rx     18DA03F1  8  22 68 01 EB 10 70 10 28 
  1267)     11302.4  Rx     18DA03F1  8  23 05 D8 60 68 01 EB 10 
  1268)     11305.3  Rx     18DA03F1  8  24 70 02 28 00 D3 04 E0 
  1269)     11308.3  Rx     18DA03F1  8  25 40 F2 BB 41 6D A0 01 
  1270)     11311.3  Rx     18DA03F1  8  26 F0 A3 F8 00 BF 20 79 
  1271)     11314.3  Rx     18DA03F1  8  27 C0 F3 C0 10 08 B9 74 
  1272)     11317.3  Rx     18DA03F1  8  28 49 01 E0 74 48 01 68 
  1273)     11320.3  Rx     18DA03F1  8  29 20 79 00 F0 1F 00 40 
  1274)     11323.3  Rx     18DA03F1  8  2A 1C B1 FB F0 F7 60 68 
  1275)     11326.3  Rx     18DA03F1  8  2B C0 F3 08 20 40 1C 00 
  1276)     11329.3  Rx     18DA03F1  8  2C FB 07 F5 00 BF 6E 48 
  1277)     11332.3  Rx     18DA03F1  8  2D 87 42 03 D8 6D 48 87 
  1278)     11335.3  Rx     18DA03F1  8  2E 42 00 D3 04 E0 4F F4 
  1279)     11338.3  Rx     18DA03F1  8  2F 98 61 5C A0 01 F0 81 
  1280)     11341.3  Rx     18DA03F1  8  20 F8 00 BF 00 BF 69 48 
  1281)     11344.3  Rx     18DA03F1  8  21 85 42 03 D8 40 10 85 
  1282)     11347.3  Rx     18DA03F1  8  22 42 00 D3 04 E0 40 F2 
  1283)     11350.3  Rx     18DA03F1  8  23 C1 41 55 A0 01 F0 73 
  1284)     11353.3  Rx     18DA03F1  8  24 F8 00 BF 00 BF 01 21 
  1285)     11356.3  Rx     18DA03F1  8  25 60 68 01 EB 10 70 B5 
  1286)     11359.3  Rx     18DA03F1  8  26 FB F0 F0 60 49 88 42 
  1287)     11362.3  Rx     18DA03F1  8  27 09 D8 01 21 60 68 01 
  1288)     11365.3  Rx     18DA03F1  8  28 EB 10 70 B5 FB F0 F0 
  1289)     11368.3  Rx     18DA03F1  8  29 5C 49 88 42 00 D3 04 
  1290)     11371.3  Rx     18DA03F1  8  2A E0 40 F2 C2 41 48 A0 
  1291)     11374.3  Rx     18DA03F1  8  2B 01 F0 59 F8 00 BF 00 
  1292)     11377.3  Rx     18DA03F1  8  2C BF 60 68 C0 F3 03 60 
  1293)     11380.3  Rx     18DA03F1  8  2D 40 1C 10 28 06 D8 60 
  1294)     11383.3  Rx     18DA03F1  8  2E 68 C0 F3 03 60 40 1C 
  1295)     11386.3  Rx     18DA03F1  8  2F 02 28 00 D3 04 E0 40 
  1296)     11389.3  Rx     18DA03F1  8  20 F2 C3 41 3E A0 01 F0 
  1297)     11392.3  Rx     18DA03F1  8  21 45 F8 00 BF 00 BF 60 
  1298)     11395.3  Rx     18DA03F1  8  22 68 C0 F3 03 50 40 1C 
  1299)     11398.3  Rx     18DA03F1  8  23 10 28 06 D8 60 68 C0 
  1300)     11401.3  Rx     18DA03F1  8  24 F3 03 50 40 1C 02 28 
  1301)     11406.6  Rx     18DAF103  8  03 76 76 21 AA AA AA AA 
  1302)     11420.5  Rx     18DA03F1  8  11 02 36 22 00 D3 04 E0 
  1303)     11421.6  Rx     18DAF103  8  30 00 05 AA AA AA AA AA 
  1304)     11422.3  Rx     18DA03F1  8  21 40 F2 C4 41 34 A0 01 
  1305)     11425.3  Rx     18DA03F1  8  22 F0 31 F8 00 BF 00 BF 
  1306)     11428.4  Rx     18DA03F1  8  23 60 68 C0 F3 03 50 40 
  1307)     11431.3  Rx     18DA03F1  8  24 1C B5 FB F0 F0 3F 49 
  1308)     11434.3  Rx     18DA03F1  8  25 88 42 09 D8 60 68 C0 
  1309)     11437.4  Rx     18DA03F1  8  26 F3 03 50 40 1C B5 FB 
  1310)     11440.3  Rx     18DA03F1  8  27 F0 F0 3B 49 88 42 00 
  1311)     11443.3  Rx     18DA03F1  8  28 D3 04 E0 40 F2 C5 41 
  1312)     11446.4  Rx     18DA03F1  8  29 27 A0 01 F0 17 F8 00 
  1313)     11449.3  Rx     18DA03F1  8  2A BF 00 BF 60 68 C0 F3 
  1314)     11452.3  Rx     18DA03F1  8  2B 03 60 40 1C B5 FB F0 
  1315)     11455.3  Rx     18DA03F1  8  2C F0 32 49 88 42 09 D8 
  1316)     11458.3  Rx     18DA03F1  8  2D 60 68 C0 F3 03 60 40 
  1317)     11461.3  Rx     18DA03F1  8  2E 1C B5 FB F0 F0 2E 49 
  1318)     11464.4  Rx     18DA03F1  8  2F 88 42 00 D3 04 E0 40 
  1319)     11467.3  Rx     18DA03F1  8  20 F2 C6 41 1A A0 00 F0 
  1320)     11470.3  Rx     18DA03F1  8  21 FD FF 00 BF 00 BF 20 
  1321)     11473.4  Rx     18DA03F1  8  22 78 01 28 01 D0 20 78 
  1322)     11476.4  Rx     18DA03F1  8  23 00 B9 04 E0 4F F4 99 
  1323)     11479.3  Rx     18DA03F1  8  24 61 14 A0 00 F0 F0 FF 
  1324)     11482.4  Rx     18DA03F1  8  25 00 BF 00 BF 23 48 00 
  1325)     11485.4  Rx     18DA03F1  8  26 88 00 F0 01 00 00 B1 
  1326)     11488.3  Rx     18DA03F1  8  27 04 E0 40 F2 C9 41 0D 
  1327)     11491.3  Rx     18DA03F1  8  28 A0 00 F0 E3 FF 00 BF 
  1328)     11494.4  Rx     18DA03F1  8  29 20 79 C1 09 1D 48 00 
  1329)     11497.3  Rx     18DA03F1  8  2A 68 61 F3 C7 10 1B 49 
  1330)     11500.3  Rx     18DA03F1  8  2B 08 60 60 68 08 60 20 
  1331)     11503.4  Rx     18DA03F1  8  2C 78 20 B9 01 20 FF F7 
  1332)     11506.3  Rx     18DA03F1  8  2D 7B FE 06 46 03 E0 00 
  1333)     11509.3  Rx     18DA03F1  8  2E 20 FF F7 76 FE 06 46 
  1334)     11512.4  Rx     18DA03F1  8  2F 30 46 BD E8 F0 81 2E 
  1335)     11515.3  Rx     18DA03F1  8  20 2E 5C 64 72 69 76 65 
  1336)     11518.4  Rx     18DA03F1  8  21 72 73 5C 68 63 33 32 
  1337)     11521.4  Rx     18DA03F1  8  22 5F 6C 6C 5F 64 72 69 
  1338)     11524.4  Rx     18DA03F1  8  23 76 65 72 5C 73 72 63 
  1339)     11527.4  Rx     18DA03F1  8  24 5C 68 63 33 32 5F 6C 
  1340)     11532.7  Rx     18DAF103  8  03 76 76 22 AA AA AA AA 
  1341)     11546.4  Rx     18DA03F1  8  11 02 36 23 6C 5F 63 6C 
  1342)     11547.6  Rx     18DAF103  8  30 00 05 AA AA AA AA AA 
  1343)     11548.4  Rx     18DA03F1  8  21 6B 2E 63 00 00 12 7A 
  1344)     11551.4  Rx     18DA03F1  8  22 00 24 31 00 20 40 78 
  1345)     11554.4  Rx     18DA03F1  8  23 7D 01 40 42 0F 00 00 
  1346)     11557.4  Rx     18DA03F1  8  24 38 9C 1C 00 C2 EB 0B 
  1347)     11560.4  Rx     18DA03F1  8  25 C0 E1 E4 00 FE 43 05 
  1348)     11563.4  Rx     18DA03F1  8  26 40 00 41 05 40 01 46 
  1349)     11566.4  Rx     18DA03F1  8  27 00 20 09 B9 C0 1E 22 
  1350)     11569.4  Rx     18DA03F1  8  28 E0 00 22 4A 60 4A 68 
  1351)     11572.4  Rx     18DA03F1  8  29 22 F0 80 02 4A 60 4A 
  1352)     11575.4  Rx     18DA03F1  8  2A 68 22 F0 1F 02 4A 60 
  1353)     11578.4  Rx     18DA03F1  8  2B 13 23 4A 68 63 F3 10 
  1354)     11581.3  Rx     18DA03F1  8  2C 22 4A 60 4A 68 22 F0 
  1355)     11584.4  Rx     18DA03F1  8  2D 70 42 02 F1 80 52 4A 
  1356)     11587.4  Rx     18DA03F1  8  2E 60 4A 68 22 F0 70 62 
  1357)     11590.3  Rx     18DA03F1  8  2F 02 F1 80 72 4A 60 4A 
  1358)     11593.4  Rx     18DA03F1  8  20 68 22 F4 70 02 02 F5 
  1359)     11596.4  Rx     18DA03F1  8  21 80 12 4A 60 01 22 0A 
  1360)     11599.4  Rx     18DA03F1  8  22 70 70 47 70 B5 04 46 
  1361)     11602.4  Rx     18DA03F1  8  23 0D 46 29 46 20 46 04 
  1362)     11605.4  Rx     18DA03F1  8  24 F0 5C FC 05 F0 18 FA 
  1363)     11608.4  Rx     18DA03F1  8  25 70 BD 10 B5 04 46 20 
  1364)     11611.3  Rx     18DA03F1  8  26 46 04 F0 EA FD 05 F0 
  1365)     11614.3  Rx     18DA03F1  8  27 10 FA 10 BD F8 B5 05 
  1366)     11617.3  Rx     18DA03F1  8  28 46 0C 46 00 20 00 90 
  1367)     11620.3  Rx     18DA03F1  8  29 6F F0 07 06 09 E0 28 
  1368)     11623.3  Rx     18DA03F1  8  2A 46 FF F7 D4 FD 01 28 
  1369)     11626.4  Rx     18DA03F1  8  2B 01 D1 00 26 05 E0 00 
  1370)     11629.3  Rx     18DA03F1  8  2C 98 40 1C 00 90 00 98 
  1371)     11632.3  Rx     18DA03F1  8  2D A0 42 F2 D9 00 BF 30 
  1372)     11635.3  Rx     18DA03F1  8  2E 46 F8 BD 00 00 70 B5 
  1373)     11638.3  Rx     18DA03F1  8  2F 04 46 00 25 00 BF 0C 
  1374)     11641.3  Rx     18DA03F1  8  20 B1 01 2C 00 D1 04 E0 
  1375)     11644.3  Rx     18DA03F1  8  21 4F F4 67 71 1E A0 00 
  1376)     11647.3  Rx     18DA03F1  8  22 F0 41 FF 00 BF 00 BF 
  1377)     11650.3  Rx     18DA03F1  8  23 27 48 00 88 00 F0 01 
  1378)     11653.3  Rx     18DA03F1  8  24 00 00 B1 04 E0 40 F2 
  1379)     11658.5  Rx     18DAF103  8  03 76 76 23 AA AA AA AA 
  1380)     11672.4  Rx     18DA03F1  8  11 02 36 24 9D 31 18 A0 
  1381)     11673.7  Rx     18DAF103  8  30 00 05 AA AA AA AA AA 
  1382)     11674.4  Rx     18DA03F1  8  21 00 F0 34 FF 00 BF FC 
  1383)     11677.3  Rx     18DA03F1  8  22 B9 21 48 00 78 00 F0 
  1384)     11680.3  Rx     18DA03F1  8  23 07 00 03 28 02 D1 6F 
  1385)     11683.3  Rx     18DA03F1  8  24 F0 05 05 20 E0 1D 48 
  1386)     11686.3  Rx     18DA03F1  8  25 DA 30 00 68 C0 F3 C0 
  1387)     11689.3  Rx     18DA03F1  8  26 10 58 B9 1A 48 00 1D 
  1388)     11692.3  Rx     18DA03F1  8  27 00 78 10 B9 6F F0 05 
  1389)     11695.3  Rx     18DA03F1  8  28 05 13 E0 01 20 16 49 
  1390)     11698.3  Rx     18DA03F1  8  29 0C 31 08 70 0E E0 01 
  1391)     11701.3  Rx     18DA03F1  8  2A 20 13 49 0C 31 08 70 
  1392)     11704.3  Rx     18DA03F1  8  2B 09 E0 00 20 11 49 0C 
  1393)     11707.3  Rx     18DA03F1  8  2C 31 08 70 4F F4 80 51 
  1394)     11710.4  Rx     18DA03F1  8  2D 08 20 FF F7 A2 FF 05 
  1395)     11713.3  Rx     18DA03F1  8  2E 46 28 46 70 BD 2E 2E 
  1396)     11716.3  Rx     18DA03F1  8  2F 5C 64 72 69 76 65 72 
  1397)     11719.4  Rx     18DA03F1  8  20 73 5C 68 63 33 32 5F 
  1398)     11722.3  Rx     18DA03F1  8  21 6C 6C 5F 64 72 69 76 
  1399)     11725.3  Rx     18DA03F1  8  22 65 72 5C 73 72 63 5C 
  1400)     11728.3  Rx     18DA03F1  8  23 68 63 33 32 5F 6C 6C 
  1401)     11731.3  Rx     18DA03F1  8  24 5F 63 6C 6B 2E 63 00 
  1402)     11734.3  Rx     18DA03F1  8  25 FE 43 05 40 26 40 05 
  1403)     11737.3  Rx     18DA03F1  8  26 40 70 B5 04 46 14 B9 
  1404)     11740.3  Rx     18DA03F1  8  27 6F F0 02 05 7F E0 00 
  1405)     11743.3  Rx     18DA03F1  8  28 BF 20 78 01 28 01 D0 
  1406)     11746.4  Rx     18DA03F1  8  29 20 78 00 B9 04 E0 4F 
  1407)     11749.4  Rx     18DA03F1  8  2A F4 5F 71 3C A0 00 F0 
  1408)     11752.3  Rx     18DA03F1  8  2B DA FE 00 BF 00 BF 60 
  1409)     11755.4  Rx     18DA03F1  8  2C 78 40 B1 60 78 10 28 
  1410)     11758.4  Rx     18DA03F1  8  2D 05 D0 60 78 20 28 02 
  1411)     11761.3  Rx     18DA03F1  8  2E D0 60 78 30 28 00 D1 
  1412)     11764.3  Rx     18DA03F1  8  2F 04 E0 40 F2 7D 31 32 
  1413)     11767.4  Rx     18DA03F1  8  20 A0 00 F0 C7 FE 00 BF 
  1414)     11770.3  Rx     18DA03F1  8  21 00 BF A0 78 10 B1 A0 
  1415)     11773.3  Rx     18DA03F1  8  22 78 40 28 00 D1 04 E0 
  1416)     11776.4  Rx     18DA03F1  8  23 40 F2 7E 31 2C A0 00 
  1417)     11779.3  Rx     18DA03F1  8  24 F0 BA FE 00 BF 00 BF 
  1418)     11784.6  Rx     18DAF103  8  03 76 76 24 AA AA AA AA 
  1419)     11798.5  Rx     18DA03F1  8  11 02 36 25 E0 78 80 28 
  1420)     11799.7  Rx     18DAF103  8  30 00 05 AA AA AA AA AA 
  1421)     11800.4  Rx     18DA03F1  8  21 01 D0 E0 78 00 B9 04 
  1422)     11803.4  Rx     18DA03F1  8  22 E0 40 F2 7F 31 25 A0 
  1423)     11806.4  Rx     18DA03F1  8  23 00 F0 AD FE 00 BF 00 
  1424)     11809.3  Rx     18DA03F1  8  24 BF 20 79 01 28 17 D0 
  1425)     11812.4  Rx     18DA03F1  8  25 20 79 02 28 14 D0 20 
  1426)     11815.4  Rx     18DA03F1  8  26 79 03 28 11 D0 20 79 
  1427)     11818.4  Rx     18DA03F1  8  27 04 28 0E D0 20 79 05 
  1428)     11821.4  Rx     18DA03F1  8  28 28 0B D0 20 79 06 28 
  1429)     11824.4  Rx     18DA03F1  8  29 08 D0 20 79 07 28 05 
  1430)     11827.4  Rx     18DA03F1  8  2A D0 20 79 08 28 02 D0 
  1431)     11830.4  Rx     18DA03F1  8  2B 20 79 09 28 00 D1 04 
  1432)     11833.4  Rx     18DA03F1  8  2C E0 4F F4 60 71 14 A0 
  1433)     11836.4  Rx     18DA03F1  8  2D 00 F0 8A FE 00 BF 00 
  1434)     11839.4  Rx     18DA03F1  8  2E BF 1C 48 00 88 00 F0 
  1435)     11842.4  Rx     18DA03F1  8  2F 01 00 00 B1 04 E0 40 
  1436)     11845.4  Rx     18DA03F1  8  20 F2 81 31 0D A0 00 F0 
  1437)     11848.4  Rx     18DA03F1  8  21 7D FE 00 BF 20 79 17 
  1438)     11851.4  Rx     18DA03F1  8  22 49 08 70 E0 78 61 78 
  1439)     11854.4  Rx     18DA03F1  8  23 08 43 A1 78 08 43 12 
  1440)     11857.4  Rx     18DA03F1  8  24 49 12 31 08 70 20 78 
  1441)     11860.4  Rx     18DA03F1  8  25 20 B9 01 20 FF F7 1E 
  1442)     11863.4  Rx     18DA03F1  8  26 FF 05 46 03 E0 00 20 
  1443)     11866.4  Rx     18DA03F1  8  27 FF F7 19 FF 05 46 28 
  1444)     11869.4  Rx     18DA03F1  8  28 46 70 BD 2E 2E 5C 64 
  1445)     11872.4  Rx     18DA03F1  8  29 72 69 76 65 72 73 5C 
  1446)     11875.4  Rx     18DA03F1  8  2A 68 63 33 32 5F 6C 6C 
  1447)     11878.4  Rx     18DA03F1  8  2B 5F 64 72 69 76 65 72 
  1448)     11881.4  Rx     18DA03F1  8  2C 5C 73 72 63 5C 68 63 
  1449)     11884.4  Rx     18DA03F1  8  2D 33 32 5F 6C 6C 5F 63 
  1450)     11887.4  Rx     18DA03F1  8  2E 6C 6B 2E 63 00 FE 43 
  1451)     11890.4  Rx     18DA03F1  8  2F 05 40 A2 40 05 40 01 
  1452)     11893.4  Rx     18DA03F1  8  20 46 00 20 09 B9 C0 1E 
  1453)     11896.4  Rx     18DA03F1  8  21 08 E0 01 22 0A 70 00 
  1454)     11899.4  Rx     18DA03F1  8  22 22 8A 70 4A 70 80 22 
  1455)     11902.4  Rx     18DA03F1  8  23 CA 70 05 22 0A 71 70 
  1456)     11905.4  Rx     18DA03F1  8  24 47 00 00 10 B5 1B 48 
  1457)     11910.7  Rx     18DAF103  8  03 76 76 25 AA AA AA AA 
  1458)     11924.6  Rx     18DA03F1  8  11 02 36 26 FF F7 5C F9 
  1459)     11925.8  Rx     18DAF103  8  30 00 05 AA AA AA AA AA 
  1460)     11926.4  Rx     18DA03F1  8  21 04 46 04 F0 01 00 00 
  1461)     11929.4  Rx     18DA03F1  8  22 28 22 D0 18 48 00 78 
  1462)     11932.4  Rx     18DA03F1  8  23 58 B9 17 A2 19 A1 00 
  1463)     11935.4  Rx     18DA03F1  8  24 20 04 F0 7D F9 01 20 
  1464)     11938.4  Rx     18DA03F1  8  25 13 49 08 70 04 F0 C4 
  1465)     11941.4  Rx     18DA03F1  8  26 FE 24 49 08 60 04 F0 
  1466)     11944.4  Rx     18DA03F1  8  27 C0 FE 22 49 09 68 40 
  1467)     11947.4  Rx     18DA03F1  8  28 1A B0 F5 FA 7F 16 D3 
  1468)     11950.4  Rx     18DA03F1  8  29 0D A2 20 A1 00 20 04 
  1469)     11953.4  Rx     18DA03F1  8  2A F0 69 F9 09 48 FE F7 
  1470)     11956.4  Rx     18DA03F1  8  2B 1A FF 00 20 08 49 08 
  1471)     11959.4  Rx     18DA03F1  8  2C 70 0A E0 06 48 00 78 
  1472)     11962.4  Rx     18DA03F1  8  2D 38 B1 06 A2 26 A1 00 
  1473)     11965.4  Rx     18DA03F1  8  2E 20 04 F0 5A F9 00 20 
  1474)     11968.4  Rx     18DA03F1  8  2F 02 49 08 70 10 BD 00 
  1475)     11971.4  Rx     18DA03F1  8  20 04 07 40 80 82 FF 1F 
  1476)     11974.4  Rx     18DA03F1  8  21 43 41 4E 49 46 00 00 
  1477)     11977.4  Rx     18DA03F1  8  22 00 1B 5B 33 33 6D 5B 
  1478)     11980.4  Rx     18DA03F1  8  23 25 73 5D 20 42 75 73 
  1479)     11983.4  Rx     18DA03F1  8  24 2D 4F 66 66 20 64 65 
  1480)     11986.4  Rx     18DA03F1  8  25 74 65 63 74 65 64 21 
  1481)     11989.4  Rx     18DA03F1  8  26 20 53 74 61 72 74 69 
  1482)     11992.4  Rx     18DA03F1  8  27 6E 67 20 72 65 63 6F 
  1483)     11995.4  Rx     18DA03F1  8  28 76 65 72 79 20 74 69 
  1484)     11998.4  Rx     18DA03F1  8  29 6D 65 72 2E 2E 2E 1B 
  1485)     12001.4  Rx     18DA03F1  8  2A 5B 30 6D 0D 0A 00 00 
  1486)     12004.4  Rx     18DA03F1  8  2B 00 00 7C 82 FF 1F 1B 
  1487)     12007.4  Rx     18DA03F1  8  2C 5B 33 32 6D 5B 25 73 
  1488)     12010.4  Rx     18DA03F1  8  2D 5D 20 42 75 73 2D 4F 
  1489)     12013.4  Rx     18DA03F1  8  2E 66 66 20 72 65 63 6F 
  1490)     12016.4  Rx     18DA03F1  8  2F 76 65 72 79 3A 20 65 
  1491)     12019.4  Rx     18DA03F1  8  20 78 69 74 69 6E 67 20 
  1492)     12022.4  Rx     18DA03F1  8  21 6C 6F 63 61 6C 20 72 
  1493)     12025.4  Rx     18DA03F1  8  22 65 73 65 74 1B 5B 30 
  1494)     12028.4  Rx     18DA03F1  8  23 6D 0D 0A 00 00 00 1B 
  1495)     12031.4  Rx     18DA03F1  8  24 5B 33 32 6D 5B 25 73 
  1496)     12036.7  Rx     18DAF103  8  03 76 76 26 AA AA AA AA 
  1497)     12050.5  Rx     18DA03F1  8  11 02 36 27 5D 20 42 75 
  1498)     12051.7  Rx     18DAF103  8  30 00 05 AA AA AA AA AA 
  1499)     12052.4  Rx     18DA03F1  8  21 73 2D 4F 66 66 20 72 
  1500)     12055.4  Rx     18DA03F1  8  22 65 63 6F 76 65 72 65 
  1501)     12058.4  Rx     18DA03F1  8  23 64 1B 5B 30 6D 0D 0A 
  1502)     12061.5  Rx     18DA03F1  8  24 00 00 00 00 B1 01 B9 
  1503)     12064.5  Rx     18DA03F1  8  25 70 47 02 68 0A 60 02 
  1504)     12067.4  Rx     18DA03F1  8  26 7A 0A 73 42 79 0A B1 
  1505)     12070.4  Rx     18DA03F1  8  27 01 22 00 E0 00 22 4A 
  1506)     12073.4  Rx     18DA03F1  8  28 73 02 79 0A B1 01 22 
  1507)     12076.4  Rx     18DA03F1  8  29 00 E0 00 22 8A 73 D0 
  1508)     12079.4  Rx     18DA03F1  8  2A F8 09 20 4A 60 D0 F8 
